(1398128223.803317) can0 166#D0320009
(1398128223.804583) can0 158#000000000000000A
(1398128223.804828) can0 161#000005500108000D
(1398128223.805039) can0 191#010090A1410030
(1398128223.805350) can0 18E#00005C
(1398128223.805553) can0 133#0000000098
(1398128223.805804) can0 136#000200000000001B
(1398128223.806053) can0 13A#0000000000000019
(1398128223.806302) can0 13F#000000050000001F
(1398128223.806542) can0 164#0000C01AA8000031
(1398128223.806791) can0 17C#0000000010000012
(1398128223.807779) can0 183#0000000E0000101C
(1398128223.808805) can0 039#000C
(1398128223.808970) can0 143#6B6B00D1
(1398128223.810456) can0 095#800007F400000008
(1398128223.813321) can0 166#D0320018
(1398128223.814590) can0 158#0000000000000019
(1398128223.814828) can0 161#000005500108001C
(1398128223.815045) can0 191#010090A1410003
(1398128223.815303) can0 164#0000C01AA8000004
(1398128223.815482) can0 133#00000000A7
(1398128223.815735) can0 136#000200000000002A
(1398128223.815980) can0 13A#0000000000000028
(1398128223.816227) can0 13F#000000050000002E
(1398128223.816476) can0 17C#0000000010000021
(1398128223.816613) can0 18E#00006B
(1398128223.816824) can0 1CF#80050000003C
(1398128223.816988) can0 1DC#02000039
(1398128223.817140) can0 320#000030
(1398128223.817373) can0 324#7465000000000E38
(1398128223.817639) can0 183#0000000A0000102F
(1398128223.817884) can0 37C#FD00FD00097F0038
(1398128223.819000) can0 143#6B6B00E0
(1398128223.820460) can0 095#800007F400000017
(1398128223.821360) can0 1A4#0000000800000010
(1398128223.821610) can0 1AA#7FFF000000006810
(1398128223.821833) can0 1B0#000F0000000157
(1398128223.822098) can0 1D0#000000000000000A
(1398128223.822767) can0 039#001B
(1398128223.823317) can0 166#D0320027
(1398128223.824584) can0 158#0000000000000028
(1398128223.824827) can0 161#000005500108002B
(1398128223.825039) can0 191#010090A1410012
(1398128223.825402) can0 164#0000C01AA8000013
(1398128223.825598) can0 133#00000000B6
(1398128223.825850) can0 136#0002000000000039
(1398128223.826099) can0 13A#0000000000000037
(1398128223.826345) can0 13F#000000050000003D
(1398128223.826596) can0 17C#0000000010000030
(1398128223.826734) can0 18E#00007A
(1398128223.826982) can0 294#040B0002CF5A000E
(1398128223.827238) can0 21E#03E83745220601
(1398128223.827951) can0 183#0000000F00001039
(1398128223.828889) can0 143#6B6B00FF
(1398128223.830460) can0 095#800007F400000026
(1398128223.833318) can0 166#D0320036
(1398128223.834589) can0 158#0000000000000037
(1398128223.834830) can0 161#000005500108003A
(1398128223.835069) can0 164#0000C01AA8000022
(1398128223.835285) can0 191#010090A1410021
(1398128223.835469) can0 133#0000000089
(1398128223.835722) can0 136#000200000000000C
(1398128223.835965) can0 13A#000000000000000A
(1398128223.836213) can0 13F#0000000500000000
(1398128223.836463) can0 17C#0000000010000003
(1398128223.836603) can0 18E#00004D
(1398128223.836816) can0 1CF#80050000000F
(1398128223.836982) can0 1DC#0200000C
(1398128223.837371) can0 183#0000000B00001000
(1398128223.838903) can0 143#6B6B00C2
(1398128223.840462) can0 095#800007F400000035
(1398128223.841347) can0 1A4#000000080000002F
(1398128223.841596) can0 1AA#7FFF00000000682F
(1398128223.841826) can0 1B0#000F0000000166
(1398128223.842092) can0 1D0#000000000000000A
(1398128223.843349) can0 166#D0320009
(1398128223.844588) can0 158#000000000000000A
(1398128223.844828) can0 161#000005500108000D
(1398128223.845044) can0 191#010090A1410030
(1398128223.845346) can0 164#0000C01AA8000031
(1398128223.845529) can0 133#0000000098
(1398128223.845779) can0 136#000200000000001B
(1398128223.845899) can0 039#002A
(1398128223.846162) can0 13A#0000000000000019
(1398128223.846412) can0 13F#000000050000001F
(1398128223.846660) can0 17C#0000000010000012
(1398128223.846800) can0 18E#00005C
(1398128223.847056) can0 309#0000000000000084
(1398128223.847898) can0 183#0000000800001012
(1398128223.848855) can0 143#6B6B00D1
(1398128223.850465) can0 095#800007F400000008
(1398128223.853322) can0 166#D0320018
(1398128223.854589) can0 158#0000000000000019
(1398128223.854827) can0 161#000005500108001C
(1398128223.855041) can0 191#010090A1410003
(1398128223.855292) can0 164#0000C01AA8000004
(1398128223.855470) can0 133#00000000A7
(1398128223.855724) can0 136#000200000000002A
(1398128223.855968) can0 13A#0000000000000028
(1398128223.856216) can0 13F#000000050000002E
(1398128223.856464) can0 17C#0000000010000021
(1398128223.856601) can0 18E#00006B
(1398128223.856812) can0 1CF#80050000001E
(1398128223.856978) can0 1DC#0200001B
(1398128223.857393) can0 183#0000000600001023
(1398128223.858876) can0 143#6B6B00E0
(1398128223.859008) can0 039#0039
(1398128223.860468) can0 095#800007F400000017
(1398128223.861410) can0 1A4#000000080000003E
(1398128223.861663) can0 1AA#7FFF00000000673F
(1398128223.861885) can0 1B0#000F0000000175
(1398128223.862141) can0 1D0#000000000000000A
(1398128223.863316) can0 166#D0320027
(1398128223.864589) can0 158#0000000000000028
(1398128223.864826) can0 161#000005500108002B
(1398128223.865041) can0 191#010090A1410012
(1398128223.865435) can0 164#0000C01AA8000013
(1398128223.865611) can0 133#00000000B6
(1398128223.865863) can0 136#0002000000000039
(1398128223.866111) can0 13A#0000000000000037
(1398128223.866360) can0 13F#000000050000003D
(1398128223.866610) can0 17C#0000000010000030
(1398128223.866748) can0 18E#00007A
(1398128223.866996) can0 294#040B0002CF5A001D
(1398128223.867254) can0 21E#03E83745220610
(1398128223.867923) can0 183#0000000400001034
(1398128223.868855) can0 143#6B6B00FF
(1398128223.870470) can0 095#800007F400000026
(1398128223.873319) can0 166#D0320036
(1398128223.873753) can0 039#000C
(1398128223.874590) can0 158#0000000000000037
(1398128223.874830) can0 161#000005500108003A
(1398128223.875070) can0 164#0000C01AA8000022
(1398128223.875283) can0 191#010090A1410021
(1398128223.875465) can0 133#0000000089
(1398128223.875719) can0 136#000200000000000C
(1398128223.875965) can0 13A#000000000000000A
(1398128223.876214) can0 13F#0000000500000000
(1398128223.876464) can0 17C#0000000010000003
(1398128223.876604) can0 18E#00004D
(1398128223.876814) can0 1CF#80050000002D
(1398128223.876980) can0 1DC#0200002A
(1398128223.877381) can0 183#0000000A00001001
(1398128223.878871) can0 143#6B6B00C2
(1398128223.880471) can0 095#800007F400000035
(1398128223.881348) can0 1A4#0000000800000001
(1398128223.881595) can0 1AA#7FFF000000006702
(1398128223.881822) can0 1B0#000F0000000148
(1398128223.882085) can0 1D0#000000000000000A
(1398128223.883349) can0 166#D0320009
(1398128223.884587) can0 158#000000000000000A
(1398128223.884826) can0 161#000005500108000D
(1398128223.885042) can0 191#010090A1410030
(1398128223.885353) can0 164#0000C01AA8000031
(1398128223.885535) can0 133#0000000098
(1398128223.885787) can0 136#000200000000001B
(1398128223.886036) can0 13A#0000000000000019
(1398128223.886286) can0 13F#000000050000001F
(1398128223.886534) can0 17C#0000000010000012
(1398128223.886674) can0 18E#00005C
(1398128223.887352) can0 039#001B
(1398128223.887900) can0 183#0000000700001013
(1398128223.888851) can0 143#6B6B00D1
(1398128223.890477) can0 095#800007F400000008
(1398128223.893322) can0 166#D0320018
(1398128223.894590) can0 158#0000000000000019
(1398128223.894828) can0 161#000005500108001C
(1398128223.895041) can0 191#010090A1410003
(1398128223.895290) can0 164#0000C01AA8000004
(1398128223.895469) can0 133#00000000A7
(1398128223.895722) can0 136#000200000000002A
(1398128223.895971) can0 13A#0000000000000028
(1398128223.896213) can0 13F#000000050000002E
(1398128223.896461) can0 17C#0000000010000021
(1398128223.896599) can0 18E#00006B
(1398128223.896814) can0 1CF#80050000003C
(1398128223.896980) can0 1DC#02000039
(1398128223.897394) can0 183#0000000500001024
(1398128223.898910) can0 143#6B6B00E0
(1398128223.899356) can0 333#0000000000000F
(1398128223.900480) can0 095#800007F400000017
(1398128223.900778) can0 039#002A
(1398128223.901352) can0 1A4#0000000800000010
(1398128223.901473) can0 305#8017
(1398128223.901733) can0 1AA#7FFF000000006810
(1398128223.901959) can0 1B0#000F0000000157
(1398128223.902216) can0 1D0#000000000000000A
(1398128223.903320) can0 166#D0320027
(1398128223.904586) can0 158#0000000000000028
(1398128223.904825) can0 161#000005500108002B
(1398128223.905038) can0 191#010090A1410012
(1398128223.905399) can0 18E#00007A
(1398128223.905589) can0 133#00000000B6
(1398128223.905841) can0 136#0002000000000039
(1398128223.906090) can0 13A#0000000000000037
(1398128223.906338) can0 13F#000000050000003D
(1398128223.906576) can0 164#0000C01AA8000013
(1398128223.906826) can0 17C#0000000010000030
(1398128223.907064) can0 294#040B0002CF5A002C
(1398128223.907320) can0 21E#03E8374522062F
(1398128223.907944) can0 183#0000000B0000103D
(1398128223.908876) can0 143#6B6B00FF
(1398128223.910478) can0 095#800007F400000026
(1398128223.912857) can0 039#0039
(1398128223.913320) can0 166#D0320036
(1398128223.914589) can0 158#0000000000000037
(1398128223.914828) can0 161#000005500108003A
(1398128223.915043) can0 191#010010A1410029
(1398128223.915368) can0 164#0000C01AA8000022
(1398128223.915550) can0 133#0000000089
(1398128223.915803) can0 136#000200000000000C
(1398128223.916049) can0 13A#000000000000000A
(1398128223.916300) can0 13F#0000000500000000
(1398128223.916543) can0 17C#0000000010000003
(1398128223.916685) can0 18E#00004D
(1398128223.916901) can0 1CF#80050000000F
(1398128223.917067) can0 1DC#0200000C
(1398128223.917218) can0 320#000003
(1398128223.917482) can0 183#0000000800001003
(1398128223.917723) can0 324#7465000000000E0B
(1398128223.917965) can0 37C#FD00FD00097F000B
(1398128223.918994) can0 143#6B6B00C2
(1398128223.920484) can0 095#800007F400000035
(1398128223.921350) can0 1A4#000000080000002F
(1398128223.921600) can0 1AA#7FFF00000000682F
(1398128223.921828) can0 1B0#000F0000000166
(1398128223.922085) can0 1D0#000000000000000A
(1398128223.923343) can0 166#D0320009
(1398128223.924588) can0 158#000000000000000A
(1398128223.924827) can0 161#000005500108000D
(1398128223.925043) can0 191#010010A1410038
(1398128223.925358) can0 18E#00005C
(1398128223.925553) can0 133#0000000098
(1398128223.925804) can0 136#000200000000001B
(1398128223.926052) can0 13A#0000000000000019
(1398128223.926305) can0 13F#000000050000001F
(1398128223.926538) can0 164#0000C01AA8000031
(1398128223.926788) can0 17C#0000000010000012
(1398128223.927832) can0 183#0000000600001014
(1398128223.927951) can0 039#000C
(1398128223.928848) can0 143#6B6B00D1
(1398128223.930487) can0 095#800007F400000008
(1398128223.933325) can0 166#D0320018
(1398128223.934589) can0 158#0000000000000019
(1398128223.934828) can0 161#000005500108001C
(1398128223.935043) can0 191#010010A141000B
(1398128223.935299) can0 164#0000C01AA8000004
(1398128223.935478) can0 133#00000000A7
(1398128223.935732) can0 136#000200000000002A
(1398128223.935979) can0 13A#0000000000000028
(1398128223.936223) can0 13F#000000050000002E
(1398128223.936471) can0 17C#0000000010000021
(1398128223.936608) can0 18E#00006B
(1398128223.936824) can0 1CF#80050000001E
(1398128223.936989) can0 1DC#0200001B
(1398128223.937412) can0 183#0000000400001025
(1398128223.938874) can0 143#6B6B00E0
(1398128223.940489) can0 095#800007F400000017
(1398128223.941409) can0 1A4#000000080000003E
(1398128223.941527) can0 039#001B
(1398128223.941785) can0 1AA#7FFF00000000673F
(1398128223.942043) can0 1B0#000F0000000175
(1398128223.942298) can0 1D0#000000000000000A
(1398128223.943342) can0 166#D0320027
(1398128223.944586) can0 158#0000000000000028
(1398128223.944823) can0 161#000005500108002B
(1398128223.945039) can0 191#010010A141001A
(1398128223.945391) can0 164#0000C01AA8000013
(1398128223.945570) can0 133#00000000B6
(1398128223.945821) can0 136#0002000000000039
(1398128223.946068) can0 13A#0000000000000037
(1398128223.946317) can0 13F#000000050000003D
(1398128223.946564) can0 17C#0000000010000030
(1398128223.946701) can0 18E#00007A
(1398128223.946956) can0 294#040B0002CF5A003B
(1398128223.947210) can0 21E#03E8374522063E
(1398128223.947494) can0 309#0000000000000093
(1398128223.947973) can0 183#0000000300001035
(1398128223.948849) can0 143#6B6B00FF
(1398128223.950492) can0 095#800007F400000026
(1398128223.953319) can0 166#D0320036
(1398128223.954590) can0 158#0000000000000037
(1398128223.954829) can0 161#000005500108003A
(1398128223.954948) can0 039#002A
(1398128223.955179) can0 191#010010A1410029
(1398128223.955424) can0 164#0000C01AA8000022
(1398128223.955603) can0 133#0000000089
(1398128223.955856) can0 136#000200000000000C
(1398128223.956103) can0 13A#000000000000000A
(1398128223.956351) can0 13F#0000000500000000
(1398128223.956600) can0 17C#0000000010000003
(1398128223.956740) can0 18E#00004D
(1398128223.956952) can0 1CF#80050000002D
(1398128223.957118) can0 1DC#0200002A
(1398128223.957395) can0 183#0000000A00001001
(1398128223.958894) can0 143#6B6B00C2
(1398128223.960492) can0 095#800007F400000035
(1398128223.961340) can0 1A4#0000000800000001
(1398128223.961588) can0 1AA#7FFF000000006702
(1398128223.961815) can0 1B0#000F0000000148
(1398128223.962070) can0 1D0#000000000000000A
(1398128223.963342) can0 166#D0320009
(1398128223.964586) can0 158#000000000000000A
(1398128223.964826) can0 161#000005500108000D
(1398128223.965042) can0 191#010010A1410038
(1398128223.965363) can0 18E#00005C
(1398128223.965558) can0 133#0000000098
(1398128223.965809) can0 136#000200000000001B
(1398128223.966057) can0 13A#0000000000000019
(1398128223.966307) can0 13F#000000050000001F
(1398128223.966544) can0 164#0000C01AA8000031
(1398128223.966792) can0 17C#0000000010000012
(1398128223.967935) can0 183#0000000700001013
(1398128223.968869) can0 143#6B6B00D1
(1398128223.970493) can0 095#800007F400000008
(1398128223.970754) can0 039#0039
(1398128223.973323) can0 166#D0320018
(1398128223.974589) can0 158#0000000000000019
(1398128223.974827) can0 161#000005500108001C
(1398128223.975042) can0 191#010010A141000B
(1398128223.975311) can0 164#0000C01AA8000004
(1398128223.975490) can0 133#00000000A7
(1398128223.975743) can0 136#000200000000002A
(1398128223.975992) can0 13A#0000000000000028
(1398128223.976234) can0 13F#000000050000002E
(1398128223.976482) can0 17C#0000000010000021
(1398128223.976620) can0 18E#00006B
(1398128223.976835) can0 1CF#80050000003C
(1398128223.977002) can0 1DC#02000039
(1398128223.977420) can0 183#0000000500001024
(1398128223.978900) can0 143#6B6B00E0
(1398128223.980499) can0 095#800007F400000017
(1398128223.981343) can0 1A4#0000000800000010
(1398128223.981595) can0 1AA#7FFF000000006810
(1398128223.981822) can0 1B0#000F0000000157
(1398128223.982078) can0 1D0#000000000000000A
(1398128223.983322) can0 166#D0320027
(1398128223.983872) can0 039#000C
(1398128223.984585) can0 158#0000000000000028
(1398128223.984824) can0 161#000005500108002B
(1398128223.985040) can0 191#010010A141001A
(1398128223.985452) can0 164#0000C01AA8000013
(1398128223.985629) can0 133#00000000B6
(1398128223.985881) can0 136#0002000000000039
(1398128223.986128) can0 13A#0000000000000037
(1398128223.986377) can0 13F#000000050000003D
(1398128223.986623) can0 17C#0000000010000030
(1398128223.986762) can0 18E#00007A
(1398128223.987013) can0 294#040B0002CF5A000E
(1398128223.987269) can0 21E#03E83745220601
(1398128223.987952) can0 183#0000000300001035
(1398128223.988848) can0 143#6B6B00FF
(1398128223.990501) can0 095#800007F400000026
(1398128223.993319) can0 166#D0320036
(1398128223.994589) can0 158#0000000000000037
(1398128223.994847) can0 161#000005500108003A
(1398128223.995043) can0 191#010010A1410029
(1398128223.995357) can0 18E#00004D
(1398128223.995551) can0 133#0000000089
(1398128223.995804) can0 136#000200000000000C
(1398128223.996051) can0 13A#000000000000000A
(1398128223.996298) can0 13F#0000000500000000
(1398128223.996536) can0 164#0000C01AA8000022
(1398128223.996785) can0 17C#0000000010000003
(1398128223.996986) can0 1CF#80050000000F
(1398128223.997151) can0 1DC#0200000C
(1398128223.997411) can0 183#0000000200001009
(1398128223.998853) can0 143#6B6B00C2
(1398128223.999351) can0 333#0000000000001E
(1398128224.000505) can0 095#800007F400000035
(1398128224.001343) can0 1A4#000000080000002F
(1398128224.001593) can0 1AA#7FFF00000000682F
(1398128224.001821) can0 1B0#000F0000000166
(1398128224.001942) can0 039#001B
(1398128224.002198) can0 1D0#000000000000000A
(1398128224.002775) can0 305#8026
(1398128224.003350) can0 166#D0320009
(1398128224.004586) can0 158#000000000000000A
(1398128224.004826) can0 161#000005500108000D
(1398128224.005043) can0 191#010010A1410038
(1398128224.005371) can0 18E#00005C
(1398128224.005565) can0 133#0000000098
(1398128224.005817) can0 136#000200000000001B
(1398128224.006065) can0 13A#0000000000000019
(1398128224.006315) can0 13F#000000050000001F
(1398128224.006551) can0 164#0000C01AA8000031
(1398128224.006800) can0 17C#0000000010000012
(1398128224.007939) can0 183#0000000900001011
(1398128224.008839) can0 143#6B6B00D1
(1398128224.010506) can0 095#800007F400000008
(1398128224.013323) can0 166#D0320018
(1398128224.014589) can0 158#0000000000000019
(1398128224.014827) can0 161#000005500108001C
(1398128224.015043) can0 191#010010A141000B
(1398128224.015359) can0 164#0000C01AA8000004
(1398128224.015540) can0 133#00000000A7
(1398128224.015792) can0 136#000200000000002A
(1398128224.016040) can0 13A#0000000000000028
(1398128224.016286) can0 13F#000000050000002E
(1398128224.016533) can0 17C#0000000010000021
(1398128224.016668) can0 18E#00006B
(1398128224.016884) can0 1CF#80050000001E
(1398128224.017008) can0 039#002A
(1398128224.017184) can0 1DC#0200001B
(1398128224.017336) can0 320#000012
(1398128224.017594) can0 183#0000000600001023
(1398128224.017831) can0 324#7465000000000E1A
(1398128224.018075) can0 37C#FD00FD00097F001A
(1398128224.018306) can0 40C#0236323239533039
(1398128224.018441) can0 454#23EF36
(1398128224.018977) can0 143#6B6B00E0
(1398128224.020515) can0 095#800007F400000017
(1398128224.021423) can0 1A4#000000080000003E
(1398128224.021672) can0 1AA#7FFF00000000673F
(1398128224.021899) can0 1B0#000F0000000175
(1398128224.022156) can0 1D0#000000000000000A
(1398128224.023321) can0 166#D0320027
(1398128224.024585) can0 158#0000000000000028
(1398128224.024823) can0 161#000005500108002B
(1398128224.025038) can0 191#010010A141001A
(1398128224.025434) can0 133#00000000B6
(1398128224.025686) can0 136#0002000000000039
(1398128224.025934) can0 13A#0000000000000037
(1398128224.026179) can0 13F#000000050000003D
(1398128224.026425) can0 164#0000C01AA8000013
(1398128224.026671) can0 17C#0000000010000030
(1398128224.026809) can0 18E#00007A
(1398128224.027061) can0 294#040B0002CF5A001D
(1398128224.027316) can0 21E#03E83745220610
(1398128224.027986) can0 183#0000000400001034
(1398128224.028842) can0 143#6B6B00FF
(1398128224.030518) can0 095#800007F400000026
(1398128224.030785) can0 039#0039
(1398128224.033321) can0 166#D0320036
(1398128224.034590) can0 158#0000000000000037
(1398128224.034828) can0 161#000005500108003A
(1398128224.035045) can0 191#010010A1410029
(1398128224.035286) can0 164#0000C01AA8000022
(1398128224.035468) can0 133#0000000089
(1398128224.035722) can0 136#000200000000000C
(1398128224.035968) can0 13A#000000000000000A
(1398128224.036211) can0 13F#0000000500000000
(1398128224.036462) can0 17C#0000000010000003
(1398128224.036603) can0 18E#00004D
(1398128224.036817) can0 1CF#80050000002D
(1398128224.036983) can0 1DC#0200002A
(1398128224.037417) can0 183#0000000A00001001
(1398128224.038889) can0 143#6B6B00C2
(1398128224.040523) can0 095#800007F400000035
(1398128224.041344) can0 1A4#0000000800000001
(1398128224.041593) can0 1AA#7FFF000000006702
(1398128224.041818) can0 1B0#000F0000000148
(1398128224.042074) can0 1D0#000000000000000A
(1398128224.043355) can0 166#D0320009
(1398128224.044587) can0 158#000000000000000A
(1398128224.044825) can0 161#000005500108000D
(1398128224.044945) can0 039#000C
(1398128224.045175) can0 191#010010A1410038
(1398128224.045418) can0 164#0000C01AA8000031
(1398128224.045602) can0 133#0000000098
(1398128224.045852) can0 136#000200000000001B
(1398128224.046100) can0 13A#0000000000000019
(1398128224.046351) can0 13F#000000050000001F
(1398128224.046601) can0 17C#0000000010000012
(1398128224.046738) can0 18E#00005C
(1398128224.046995) can0 309#00000000000000A2
(1398128224.047251) can0 428#01040000521C01
(1398128224.047541) can0 405#000004000000000B
(1398128224.047841) can0 183#0000000700001013
(1398128224.048868) can0 143#6B6B00D1
(1398128224.050529) can0 095#800007F400000008
(1398128224.053323) can0 166#D0320018
(1398128224.054592) can0 158#0000000000000019
(1398128224.054827) can0 161#000005500108001C
(1398128224.055043) can0 191#010010A141000B
(1398128224.055287) can0 164#0000C01AA8000004
(1398128224.055466) can0 133#00000000A7
(1398128224.055719) can0 136#000200000000002A
(1398128224.055968) can0 13A#0000000000000028
(1398128224.056210) can0 13F#000000050000002E
(1398128224.056458) can0 17C#0000000010000021
(1398128224.056598) can0 18E#00006B
(1398128224.056812) can0 1CF#80050000003C
(1398128224.056976) can0 1DC#02000039
(1398128224.057435) can0 183#0000000500001024
(1398128224.057872) can0 039#001B
(1398128224.058869) can0 143#6B6B00E0
(1398128224.060537) can0 095#800007F400000017
(1398128224.061355) can0 1A4#0000000800000010
(1398128224.061599) can0 1AA#7FFF000000006810
(1398128224.061826) can0 1B0#000F0000000157
(1398128224.062082) can0 1D0#000000000000000A
(1398128224.063322) can0 166#D0320027
(1398128224.064585) can0 158#0000000000000028
(1398128224.064823) can0 161#000005500108002B
(1398128224.065040) can0 191#010010A141001A
(1398128224.065417) can0 164#0000C01AA8000013
(1398128224.065595) can0 133#00000000B6
(1398128224.065847) can0 136#0002000000000039
(1398128224.066094) can0 13A#0000000000000037
(1398128224.066343) can0 13F#000000050000003D
(1398128224.066589) can0 17C#0000000010000030
(1398128224.066728) can0 18E#00007A
(1398128224.066981) can0 294#040B0002CF5A002C
(1398128224.067238) can0 21E#03E8374522062F
(1398128224.067976) can0 183#0000000B0000103D
(1398128224.068832) can0 143#6B6B00FF
(1398128224.070541) can0 095#800007F400000026
(1398128224.072262) can0 039#002A
(1398128224.073321) can0 166#D0320036
(1398128224.074587) can0 158#0000000000000037
(1398128224.074827) can0 161#000005500108003A
(1398128224.075043) can0 191#010010A1410029
(1398128224.075289) can0 164#0000C01AA8000022
(1398128224.075470) can0 133#0000000089
(1398128224.075727) can0 136#000200000000000C
(1398128224.075970) can0 13A#000000000000000A
(1398128224.076214) can0 13F#0000000500000000
(1398128224.076464) can0 17C#0000000010000003
(1398128224.076605) can0 18E#00004D
(1398128224.076822) can0 1CF#80050000000F
(1398128224.076987) can0 1DC#0200000C
(1398128224.077428) can0 183#0000000800001003
(1398128224.078857) can0 143#6B6B00C2
(1398128224.080545) can0 095#800007F400000035
(1398128224.081347) can0 1A4#000000080000002F
(1398128224.081596) can0 1AA#7FFF00000000682F
(1398128224.081824) can0 1B0#000F0000000166
(1398128224.082082) can0 1D0#000000000000000A
(1398128224.083344) can0 166#D0320009
(1398128224.084585) can0 158#000000000000000A
(1398128224.084826) can0 161#000005500108000D
(1398128224.085041) can0 191#010010A1410038
(1398128224.085362) can0 164#0000C01AA8000031
(1398128224.085543) can0 133#0000000098
(1398128224.085794) can0 136#000200000000001B
(1398128224.085916) can0 039#0039
(1398128224.086178) can0 13A#0000000000000019
(1398128224.086429) can0 13F#000000050000001F
(1398128224.086679) can0 17C#0000000010000012
(1398128224.086817) can0 18E#00005C
(1398128224.087962) can0 183#0000000D0000101D
(1398128224.088834) can0 143#6B6B00D1
(1398128224.090550) can0 095#800007F400000008
(1398128224.093324) can0 166#D0320018
(1398128224.094587) can0 158#0000000000000019
(1398128224.094826) can0 161#000005500108001C
(1398128224.095041) can0 191#010010A141000B
(1398128224.095428) can0 164#0000C01AA8000004
(1398128224.095600) can0 133#00000000A7
(1398128224.095860) can0 136#000200000000002A
(1398128224.096108) can0 13A#0000000000000028
(1398128224.096354) can0 13F#000000050000002E
(1398128224.096599) can0 17C#0000000010000021
(1398128224.096738) can0 18E#00006B
(1398128224.096952) can0 1CF#80050000001E
(1398128224.097117) can0 1DC#0200001B
(1398128224.097449) can0 183#0000000900001020
(1398128224.098887) can0 143#6B6B00E0
(1398128224.099378) can0 333#0000000000002D
(1398128224.099779) can0 039#000C
(1398128224.100557) can0 095#800007F400000017
(1398128224.101420) can0 1A4#000000080000003E
(1398128224.101666) can0 1AA#7FFF00000000673F
(1398128224.101894) can0 1B0#000F0000000175
(1398128224.102151) can0 1D0#000000000000000A
(1398128224.103323) can0 166#D0320027
(1398128224.104586) can0 158#0000000000000028
(1398128224.104824) can0 161#000005500108002B
(1398128224.105040) can0 191#010010A141001A
(1398128224.105250) can0 18E#00007A
(1398128224.105442) can0 133#00000000B6
(1398128224.105696) can0 136#0002000000000039
(1398128224.105945) can0 13A#0000000000000037
(1398128224.106186) can0 13F#000000050000003D
(1398128224.106435) can0 164#0000C01AA8000013
(1398128224.106686) can0 17C#0000000010000030
(1398128224.106924) can0 294#040B0002CF5A003B
(1398128224.107041) can0 305#8035
(1398128224.107275) can0 21E#03E8374522063E
(1398128224.107984) can0 183#0000000600001032
(1398128224.108864) can0 143#6B6B00FF
(1398128224.110562) can0 095#800007F400000026
(1398128224.113321) can0 166#D0320036
(1398128224.113831) can0 039#001B
(1398128224.114588) can0 158#0000000000000037
(1398128224.114827) can0 161#000005500108003A
(1398128224.115043) can0 191#010010A1410029
(1398128224.115373) can0 164#0000C01AA8000022
(1398128224.115554) can0 133#0000000089
(1398128224.115808) can0 136#000200000000000C
(1398128224.116054) can0 13A#000000000000000A
(1398128224.116302) can0 13F#0000000500000000
(1398128224.116549) can0 17C#0000000010000003
(1398128224.116689) can0 18E#00004D
(1398128224.116905) can0 1CF#80050000002D
(1398128224.117070) can0 1DC#0200002A
(1398128224.117221) can0 320#000021
(1398128224.117481) can0 183#0000000C0000100F
(1398128224.117719) can0 324#7465000000000E29
(1398128224.117962) can0 37C#FD00FD00097F0029
(1398128224.118970) can0 143#6B6B00C2
(1398128224.120567) can0 095#800007F400000035
(1398128224.121353) can0 1A4#0000000800000001
(1398128224.121601) can0 1AA#7FFF000000006702
(1398128224.121828) can0 1B0#000F0000000148
(1398128224.122083) can0 1D0#000000000000000A
(1398128224.123351) can0 166#D0320009
(1398128224.124584) can0 158#000000000000000A
(1398128224.124826) can0 161#000005500108000D
(1398128224.125040) can0 191#010010A1410038
(1398128224.125345) can0 18E#00005C
(1398128224.125552) can0 133#0000000098
(1398128224.125805) can0 136#000200000000001B
(1398128224.126051) can0 13A#0000000000000019
(1398128224.126301) can0 13F#000000050000001F
(1398128224.126538) can0 164#0000C01AA8000031
(1398128224.126788) can0 17C#0000000010000012
(1398128224.127984) can0 183#0000000900001011
(1398128224.128837) can0 143#6B6B00D1
(1398128224.130570) can0 095#800007F400000008
(1398128224.133323) can0 166#D0320018
(1398128224.134587) can0 158#0000000000000019
(1398128224.134827) can0 161#000005500108001C
(1398128224.134944) can0 039#002A
(1398128224.135201) can0 164#0000C01AA8000004
(1398128224.135417) can0 191#010010A141000B
(1398128224.135598) can0 133#00000000A7
(1398128224.135852) can0 136#000200000000002A
(1398128224.136100) can0 13A#0000000000000028
(1398128224.136346) can0 13F#000000050000002E
(1398128224.136594) can0 17C#0000000010000021
(1398128224.136733) can0 18E#00006B
(1398128224.136945) can0 1CF#80050000003C
(1398128224.137109) can0 1DC#02000039
(1398128224.137448) can0 183#0000000E0000102B
(1398128224.138854) can0 143#6B6B00E0
(1398128224.140580) can0 095#800007F400000017
(1398128224.141347) can0 1A4#0000000800000010
(1398128224.141598) can0 1AA#7FFF000000006810
(1398128224.141825) can0 1B0#000F0000000157
(1398128224.142080) can0 1D0#000000000000000A
(1398128224.143334) can0 166#D0320027
(1398128224.144586) can0 158#0000000000000028
(1398128224.144825) can0 161#000005500108002B
(1398128224.145040) can0 191#010010A141001A
(1398128224.145352) can0 164#0000C01AA8000013
(1398128224.145527) can0 133#00000000B6
(1398128224.145782) can0 136#0002000000000039
(1398128224.146031) can0 13A#0000000000000037
(1398128224.146273) can0 13F#000000050000003D
(1398128224.146525) can0 17C#0000000010000030
(1398128224.146663) can0 18E#00007A
(1398128224.146916) can0 294#040B0002CF5A000E
(1398128224.147189) can0 21E#03E83745220601
(1398128224.147476) can0 309#00000000000000B1
(1398128224.147981) can0 183#0000000A0000103E
(1398128224.148102) can0 039#0039
(1398128224.148829) can0 143#6B6B00FF
(1398128224.150584) can0 095#800007F400000026
(1398128224.153323) can0 166#D0320036
(1398128224.154588) can0 158#0000000000000037
(1398128224.154831) can0 161#000005500108003A
(1398128224.155044) can0 191#010010A1410029
(1398128224.155306) can0 164#0000C01AA8000022
(1398128224.155487) can0 133#0000000089
(1398128224.155741) can0 136#000200000000000C
(1398128224.155987) can0 13A#000000000000000A
(1398128224.156231) can0 13F#0000000500000000
(1398128224.156481) can0 17C#0000000010000003
(1398128224.156622) can0 18E#00004D
(1398128224.156842) can0 1CF#80050000000F
(1398128224.157004) can0 1DC#0200000C
(1398128224.157438) can0 183#0000000700001004
(1398128224.158846) can0 143#6B6B00C2
(1398128224.160588) can0 095#800007F400000035
(1398128224.161343) can0 1A4#000000080000002F
(1398128224.161593) can0 1AA#7FFF00000000682F
(1398128224.161821) can0 1B0#000F0000000166
(1398128224.161943) can0 039#000C
(1398128224.162199) can0 1D0#000000000000000A
(1398128224.163344) can0 166#D0320009
(1398128224.164584) can0 158#000000000000000A
(1398128224.164825) can0 161#000005500108000D
(1398128224.165041) can0 191#010010A1410038
(1398128224.165367) can0 18E#00005C
(1398128224.165562) can0 133#0000000098
(1398128224.165812) can0 136#000200000000001B
(1398128224.166061) can0 13A#0000000000000019
(1398128224.166311) can0 13F#000000050000001F
(1398128224.166549) can0 164#0000C01AA8000031
(1398128224.166796) can0 17C#0000000010000012
(1398128224.167851) can0 183#0000000D0000101D
(1398128224.168819) can0 143#6B6B00D1
(1398128224.170592) can0 095#800007F400000008
(1398128224.173324) can0 166#D0320018
(1398128224.174588) can0 158#0000000000000019
(1398128224.174825) can0 161#000005500108001C
(1398128224.175041) can0 191#010010A141000B
(1398128224.175286) can0 164#0000C01AA8000004
(1398128224.175465) can0 133#00000000A7
(1398128224.175718) can0 136#000200000000002A
(1398128224.175967) can0 13A#0000000000000028
(1398128224.176209) can0 13F#000000050000002E
(1398128224.176457) can0 17C#0000000010000021
(1398128224.176595) can0 18E#00006B
(1398128224.176810) can0 1CF#80050000001E
(1398128224.176976) can0 1DC#0200001B
(1398128224.177460) can0 183#0000000900001020
(1398128224.177885) can0 039#001B
(1398128224.178878) can0 143#6B6B00E0
(1398128224.180600) can0 095#800007F400000017
(1398128224.181411) can0 1A4#000000080000003E
(1398128224.181659) can0 1AA#7FFF00000000673F
(1398128224.181886) can0 1B0#000F0000000175
(1398128224.182141) can0 1D0#000000000000000A
(1398128224.183323) can0 166#D0320027
(1398128224.184584) can0 158#0000000000000028
(1398128224.184823) can0 161#000005500108002B
(1398128224.185039) can0 191#010010A141001A
(1398128224.185383) can0 164#0000C01AA8000013
(1398128224.185562) can0 133#00000000B6
(1398128224.185813) can0 136#0002000000000039
(1398128224.186061) can0 13A#0000000000000037
(1398128224.186309) can0 13F#000000050000003D
(1398128224.186556) can0 17C#0000000010000030
(1398128224.186694) can0 18E#00007A
(1398128224.186948) can0 294#040B0002CF5A001D
(1398128224.187202) can0 21E#03E83745220610
(1398128224.188002) can0 183#0000000600001032
(1398128224.188853) can0 143#6B6B00FF
(1398128224.190604) can0 095#800007F400000026
(1398128224.193319) can0 166#D0320036
(1398128224.194586) can0 158#0000000000000037
(1398128224.194825) can0 161#000005500108003A
(1398128224.195042) can0 191#010010A1410029
(1398128224.195284) can0 164#0000C01AA8000022
(1398128224.195465) can0 133#0000000089
(1398128224.195718) can0 136#000200000000000C
(1398128224.195966) can0 13A#000000000000000A
(1398128224.196209) can0 13F#0000000500000000
(1398128224.196459) can0 17C#0000000010000003
(1398128224.196599) can0 18E#00004D
(1398128224.196815) can0 1CF#80050000002D
(1398128224.196982) can0 1DC#0200002A
(1398128224.197449) can0 183#0000000C0000100F
(1398128224.197806) can0 039#002A
(1398128224.198863) can0 143#6B6B00C2
(1398128224.199363) can0 333#0000000000003C
(1398128224.200609) can0 095#800007F400000035
(1398128224.201343) can0 1A4#0000000800000001
(1398128224.201590) can0 1AA#7FFF000000006702
(1398128224.201817) can0 1B0#000F0000000148
(1398128224.202075) can0 1D0#000000000000000A
(1398128224.203345) can0 166#D0320009
(1398128224.204585) can0 158#000000000000000A
(1398128224.204825) can0 161#000005500108000D
(1398128224.205041) can0 191#010010A1410038
(1398128224.205188) can0 18E#00005C
(1398128224.205433) can0 133#0000000098
(1398128224.205683) can0 136#000200000000001B
(1398128224.205931) can0 13A#0000000000000019
(1398128224.206183) can0 13F#000000050000001F
(1398128224.206422) can0 164#0000C01AA8000031
(1398128224.206671) can0 17C#0000000010000012
(1398128224.207985) can0 183#0000000900001011
(1398128224.208819) can0 143#6B6B00D1
(1398128224.209896) can0 305#8008
(1398128224.210611) can0 095#800007F400000008
(1398128224.213324) can0 166#D0320018
(1398128224.214586) can0 158#0000000000000019
(1398128224.214823) can0 161#000005500108001C
(1398128224.215038) can0 191#010090A1410003
(1398128224.215286) can0 164#0000C01AA8000004
(1398128224.215466) can0 133#00000000A7
(1398128224.215719) can0 136#000200000000002A
(1398128224.215967) can0 13A#0000000000000028
(1398128224.216209) can0 13F#000000050000002E
(1398128224.216458) can0 17C#0000000010000021
(1398128224.216596) can0 18E#00006B
(1398128224.216811) can0 1CF#80050000003C
(1398128224.216978) can0 1DC#02000039
(1398128224.217128) can0 320#000030
(1398128224.217381) can0 324#7465000000000E38
(1398128224.217628) can0 183#0000000E0000102B
(1398128224.217874) can0 37C#FD00FD00097F0038
(1398128224.217997) can0 039#0039
(1398128224.218951) can0 143#6B6B00E0
(1398128224.220618) can0 095#800007F400000017
(1398128224.221355) can0 1A4#0000000800000010
(1398128224.221606) can0 1AA#7FFF000000006810
(1398128224.221832) can0 1B0#000F0000000157
(1398128224.222090) can0 1D0#000000000000000A
(1398128224.223322) can0 166#D0320027
(1398128224.224584) can0 158#0000000000000028
(1398128224.224822) can0 161#000005500108002B
(1398128224.225035) can0 191#010090A1410012
(1398128224.225416) can0 133#00000000B6
(1398128224.225667) can0 136#0002000000000039
(1398128224.225914) can0 13A#0000000000000037
(1398128224.226163) can0 13F#000000050000003D
(1398128224.226406) can0 164#0000C01AA8000013
(1398128224.226651) can0 17C#0000000010000030
(1398128224.226789) can0 18E#00007A
(1398128224.227045) can0 294#040B0002CF5A002C
(1398128224.227301) can0 21E#03E8374522062F
(1398128224.228041) can0 183#0000000A0000103E
(1398128224.228820) can0 143#6B6B00FF
(1398128224.230620) can0 095#800007F400000026
(1398128224.231818) can0 039#000C
(1398128224.233321) can0 166#D0320036
(1398128224.234588) can0 158#0000000000000037
(1398128224.234827) can0 161#000005500108003A
(1398128224.235043) can0 191#010090A1410021
(1398128224.235285) can0 164#0000C01AA8000022
(1398128224.235466) can0 133#0000000089
(1398128224.235720) can0 136#000200000000000C
(1398128224.235966) can0 13A#000000000000000A
(1398128224.236210) can0 13F#0000000500000000
(1398128224.236461) can0 17C#0000000010000003
(1398128224.236601) can0 18E#00004D
(1398128224.236818) can0 1CF#80050000000F
(1398128224.236983) can0 1DC#0200000C
(1398128224.237444) can0 183#0000000F0000100C
(1398128224.238832) can0 143#6B6B00C2
(1398128224.240621) can0 095#800007F400000035
(1398128224.241343) can0 1A4#000000080000002F
(1398128224.241593) can0 1AA#7FFF00000000682F
(1398128224.241820) can0 1B0#000F0000000166
(1398128224.242078) can0 1D0#000000000000000A
(1398128224.243363) can0 166#D0320009
(1398128224.244583) can0 158#000000000000000A
(1398128224.244823) can0 161#000005500108000D
(1398128224.245044) can0 191#010090A1410030
(1398128224.245366) can0 18E#00005C
(1398128224.245559) can0 133#0000000098
(1398128224.245811) can0 136#000200000000001B
(1398128224.246060) can0 13A#0000000000000019
(1398128224.246309) can0 13F#000000050000001F
(1398128224.246545) can0 164#0000C01AA8000031
(1398128224.246793) can0 17C#0000000010000012
(1398128224.246914) can0 039#001B
(1398128224.247176) can0 309#0000000000000084
(1398128224.247994) can0 183#0000000B0000101F
(1398128224.248847) can0 143#6B6B00D1
(1398128224.250626) can0 095#800007F400000008
(1398128224.253326) can0 166#D0320018
(1398128224.254587) can0 158#0000000000000019
(1398128224.254825) can0 161#000005500108001C
(1398128224.255039) can0 191#010090A1410003
(1398128224.255302) can0 164#0000C01AA8000004
(1398128224.255480) can0 133#00000000A7
(1398128224.255734) can0 136#000200000000002A
(1398128224.255982) can0 13A#0000000000000028
(1398128224.256224) can0 13F#000000050000002E
(1398128224.256473) can0 17C#0000000010000021
(1398128224.256610) can0 18E#00006B
(1398128224.256826) can0 1CF#80050000001E
(1398128224.256991) can0 1DC#0200001B
(1398128224.257471) can0 183#0000000800001021
(1398128224.258862) can0 143#6B6B00E0
(1398128224.260630) can0 095#800007F400000017
(1398128224.260799) can0 039#002A
(1398128224.261408) can0 1A4#000000080000003E
(1398128224.261660) can0 1AA#7FFF00000000673F
(1398128224.261886) can0 1B0#000F0000000175
(1398128224.262142) can0 1D0#000000000000000A
(1398128224.263323) can0 166#D0320027
(1398128224.264584) can0 158#0000000000000028
(1398128224.264822) can0 161#000005500108002B
(1398128224.265035) can0 191#010090A1410012
(1398128224.265412) can0 133#00000000B6
(1398128224.265662) can0 136#0002000000000039
(1398128224.265910) can0 13A#0000000000000037
(1398128224.266159) can0 13F#000000050000003D
(1398128224.266401) can0 164#0000C01AA8000013
(1398128224.266647) can0 17C#0000000010000030
(1398128224.266786) can0 18E#00007A
(1398128224.267039) can0 294#040B0002CF5A003B
(1398128224.267293) can0 21E#03E8374522063E
(1398128224.268008) can0 183#0000000600001032
(1398128224.268834) can0 143#6B6B00FF
(1398128224.270631) can0 095#800007F400000026
(1398128224.273323) can0 166#D0320036
(1398128224.274587) can0 158#0000000000000037
(1398128224.274827) can0 161#000005500108003A
(1398128224.274949) can0 039#0039
(1398128224.275179) can0 191#010090A1410021
(1398128224.275421) can0 164#0000C01AA8000022
(1398128224.275603) can0 133#0000000089
(1398128224.275856) can0 136#000200000000000C
(1398128224.276102) can0 13A#000000000000000A
(1398128224.276351) can0 13F#0000000500000000
(1398128224.276600) can0 17C#0000000010000003
(1398128224.276741) can0 18E#00004D
(1398128224.276952) can0 1CF#80050000002D
(1398128224.277117) can0 1DC#0200002A
(1398128224.277467) can0 183#0000000400001007
(1398128224.278833) can0 143#6B6B00C2
(1398128224.280632) can0 095#800007F400000035
(1398128224.281345) can0 1A4#0000000800000001
(1398128224.281592) can0 1AA#7FFF000000006702
(1398128224.281817) can0 1B0#000F0000000148
(1398128224.282075) can0 1D0#000000000000000A
(1398128224.283346) can0 166#D0320009
(1398128224.284583) can0 158#000000000000000A
(1398128224.284823) can0 161#000005500108000D
(1398128224.285039) can0 191#010090A1410030
(1398128224.285441) can0 164#0000C01AA8000031
(1398128224.285623) can0 133#0000000098
(1398128224.285874) can0 136#000200000000001B
(1398128224.286123) can0 13A#0000000000000019
(1398128224.286373) can0 13F#000000050000001F
(1398128224.286617) can0 17C#0000000010000012
(1398128224.286757) can0 18E#00005C
(1398128224.287878) can0 183#0000000300001017
(1398128224.288808) can0 143#6B6B00D1
(1398128224.289894) can0 039#000C
(1398128224.290634) can0 095#800007F400000008
(1398128224.293324) can0 166#D0320018
(1398128224.294585) can0 158#0000000000000019
(1398128224.294822) can0 161#000005500108001C
(1398128224.295037) can0 191#010090A1410003
(1398128224.295436) can0 164#0000C01AA8000004
(1398128224.295615) can0 133#00000000A7
(1398128224.295868) can0 136#000200000000002A
(1398128224.296116) can0 13A#0000000000000028
(1398128224.296362) can0 13F#000000050000002E
(1398128224.296606) can0 17C#0000000010000021
(1398128224.296744) can0 18E#00006B
(1398128224.296960) can0 1CF#80050000003C
(1398128224.297125) can0 1DC#02000039
(1398128224.297483) can0 183#0000000A0000102F
(1398128224.298823) can0 143#6B6B00E0
(1398128224.299371) can0 333#0000000000000F
(1398128224.300640) can0 095#800007F400000017
(1398128224.301351) can0 1A4#0000000800000010
(1398128224.301603) can0 1AA#7FFF000000006810
(1398128224.301828) can0 1B0#000F0000000157
(1398128224.302064) can0 1D0#000000000000000A
(1398128224.303323) can0 166#D0320027
(1398128224.304585) can0 158#0000000000000028
(1398128224.304822) can0 161#000005500108002B
(1398128224.305035) can0 191#010090A1410012
(1398128224.305407) can0 133#00000000B6
(1398128224.305658) can0 136#0002000000000039
(1398128224.305907) can0 13A#0000000000000037
(1398128224.306154) can0 13F#000000050000003D
(1398128224.306397) can0 164#0000C01AA8000013
(1398128224.306644) can0 17C#0000000010000030
(1398128224.306781) can0 18E#00007A
(1398128224.307033) can0 294#040B0002CF5A000E
(1398128224.307289) can0 21E#03E83745220601
(1398128224.307887) can0 039#001B
(1398128224.308145) can0 183#0000000700001031
(1398128224.308810) can0 143#6B6B00FF
(1398128224.310639) can0 095#800007F400000026
(1398128224.313321) can0 166#D0320036
(1398128224.313918) can0 305#8017
(1398128224.314585) can0 158#0000000000000037
(1398128224.314825) can0 161#000005500108003A
(1398128224.315040) can0 191#010090A1410021
(1398128224.315382) can0 164#0000C01AA8000022
(1398128224.315562) can0 133#0000000089
(1398128224.315816) can0 136#000200000000000C
(1398128224.316063) can0 13A#000000000000000A
(1398128224.316310) can0 13F#0000000500000000
(1398128224.316557) can0 17C#0000000010000003
(1398128224.316696) can0 18E#00004D
(1398128224.316914) can0 1CF#80050000000F
(1398128224.317079) can0 1DC#0200000C
(1398128224.317233) can0 320#000003
(1398128224.317486) can0 324#7465000000000E0B
(1398128224.317730) can0 183#0000000D0000100E
(1398128224.317972) can0 37C#FD00FD00097F000B
(1398128224.318209) can0 40C#033133383439000D
(1398128224.318341) can0 454#23EF09
(1398128224.318935) can0 143#6B6B00C2
(1398128224.320642) can0 095#800007F400000035
(1398128224.321354) can0 1A4#000000080000002F
(1398128224.321604) can0 1AA#7FFF00000000682F
(1398128224.321831) can0 1B0#000F0000000166
(1398128224.321954) can0 039#002A
(1398128224.322210) can0 1D0#000000000000000A
(1398128224.323345) can0 166#D0320009
(1398128224.324584) can0 158#000000000000000A
(1398128224.324823) can0 161#000005500108000D
(1398128224.325038) can0 191#010090A1410030
(1398128224.325185) can0 18E#00005C
(1398128224.325420) can0 133#0000000098
(1398128224.325670) can0 136#000200000000001B
(1398128224.325918) can0 13A#0000000000000019
(1398128224.326168) can0 13F#000000050000001F
(1398128224.326408) can0 164#0000C01AA8000031
(1398128224.326657) can0 17C#0000000010000012
(1398128224.328032) can0 183#0000000900001011
(1398128224.328836) can0 143#6B6B00D1
(1398128224.330641) can0 095#800007F400000008
(1398128224.333327) can0 166#D0320018
(1398128224.334586) can0 158#0000000000000019
(1398128224.334824) can0 161#000005500108001C
(1398128224.335038) can0 191#010090A1410003
(1398128224.335285) can0 164#0000C01AA8000004
(1398128224.335461) can0 133#00000000A7
(1398128224.335590) can0 039#0039
(1398128224.335851) can0 136#000200000000002A
(1398128224.336099) can0 13A#0000000000000028
(1398128224.336345) can0 13F#000000050000002E
(1398128224.336593) can0 17C#0000000010000021
(1398128224.336732) can0 18E#00006B
(1398128224.336943) can0 1CF#80050000001E
(1398128224.337109) can0 1DC#0200001B
(1398128224.337498) can0 183#0000000600001023
(1398128224.338848) can0 143#6B6B00E0
(1398128224.340647) can0 095#800007F400000017
(1398128224.341413) can0 1A4#000000080000003E
(1398128224.341660) can0 1AA#7FFF00000000673F
(1398128224.341886) can0 1B0#000F0000000175
(1398128224.342142) can0 1D0#000000000000000A
(1398128224.343335) can0 166#D0320027
(1398128224.344583) can0 158#0000000000000028
(1398128224.344821) can0 161#000005500108002B
(1398128224.345034) can0 191#010090A1410012
(1398128224.345358) can0 164#0000C01AA8000013
(1398128224.345537) can0 133#00000000B6
(1398128224.345788) can0 136#0002000000000039
(1398128224.346036) can0 13A#0000000000000037
(1398128224.346278) can0 13F#000000050000003D
(1398128224.346531) can0 17C#0000000010000030
(1398128224.346669) can0 18E#00007A
(1398128224.346920) can0 294#040B0002CF5A001D
(1398128224.347194) can0 21E#03E83745220610
(1398128224.347479) can0 309#0000000000000093
(1398128224.347736) can0 428#01040000521C10
(1398128224.348028) can0 405#000004000000001A
(1398128224.348277) can0 183#0000000C0000103C
(1398128224.348811) can0 143#6B6B00FF
(1398128224.350648) can0 095#800007F400000026
(1398128224.351847) can0 039#000C
(1398128224.353322) can0 166#D0320036
(1398128224.354585) can0 158#0000000000000037
(1398128224.354825) can0 161#000005500108003A
(1398128224.355042) can0 191#010090A1410021
(1398128224.355286) can0 164#0000C01AA8000022
(1398128224.355464) can0 133#0000000089
(1398128224.355718) can0 136#000200000000000C
(1398128224.355965) can0 13A#000000000000000A
(1398128224.356209) can0 13F#0000000500000000
(1398128224.356459) can0 17C#0000000010000003
(1398128224.356599) can0 18E#00004D
(1398128224.356814) can0 1CF#80050000002D
(1398128224.356979) can0 1DC#0200002A
(1398128224.357473) can0 183#0000000900001002
(1398128224.358810) can0 143#6B6B00C2
(1398128224.360650) can0 095#800007F400000035
(1398128224.361342) can0 1A4#0000000800000001
(1398128224.361588) can0 1AA#7FFF000000006702
(1398128224.361814) can0 1B0#000F0000000148
(1398128224.362071) can0 1D0#000000000000000A
(1398128224.363353) can0 166#D0320009
(1398128224.364585) can0 158#000000000000000A
(1398128224.364824) can0 161#000005500108000D
(1398128224.364943) can0 039#001B
(1398128224.365174) can0 191#010090A1410030
(1398128224.365418) can0 164#0000C01AA8000031
(1398128224.365599) can0 133#0000000098
(1398128224.365851) can0 136#000200000000001B
(1398128224.366100) can0 13A#0000000000000019
(1398128224.366350) can0 13F#000000050000001F
(1398128224.366598) can0 17C#0000000010000012
(1398128224.366738) can0 18E#00005C
(1398128224.368020) can0 183#0000000600001014
(1398128224.368801) can0 143#6B6B00D1
(1398128224.370654) can0 095#800007F400000008
(1398128224.373326) can0 166#D0320018
(1398128224.374586) can0 158#0000000000000019
(1398128224.374823) can0 161#000005500108001C
(1398128224.375037) can0 191#010090A1410003
(1398128224.375281) can0 164#0000C01AA8000004
(1398128224.375460) can0 133#00000000A7
(1398128224.375714) can0 136#000200000000002A
(1398128224.375963) can0 13A#0000000000000028
(1398128224.376205) can0 13F#000000050000002E
(1398128224.376453) can0 17C#0000000010000021
(1398128224.376591) can0 18E#00006B
(1398128224.376806) can0 1CF#80050000003C
(1398128224.376971) can0 1DC#02000039
(1398128224.377499) can0 183#0000000400001025
(1398128224.378808) can0 143#6B6B00E0
(1398128224.378938) can0 039#002A
(1398128224.380656) can0 095#800007F400000017
(1398128224.381343) can0 1A4#0000000800000010
(1398128224.381594) can0 1AA#7FFF000000006810
(1398128224.381820) can0 1B0#000F0000000157
(1398128224.382078) can0 1D0#000000000000000A
(1398128224.383324) can0 166#D0320027
(1398128224.384581) can0 158#0000000000000028
(1398128224.384820) can0 161#000005500108002B
(1398128224.385033) can0 191#010090A1410012
(1398128224.385392) can0 164#0000C01AA8000013
(1398128224.385567) can0 133#00000000B6
(1398128224.385819) can0 136#0002000000000039
(1398128224.386068) can0 13A#0000000000000037
(1398128224.386316) can0 13F#000000050000003D
(1398128224.386561) can0 17C#0000000010000030
(1398128224.386700) can0 18E#00007A
(1398128224.386953) can0 294#040B0002CF5A002C
(1398128224.387210) can0 21E#03E8374522062F
(1398128224.388028) can0 183#0000000300001035
(1398128224.388801) can0 143#6B6B00FF
(1398128224.390657) can0 095#800007F400000026
(1398128224.393322) can0 166#D0320036
(1398128224.393801) can0 039#0039
(1398128224.394585) can0 158#0000000000000037
(1398128224.394825) can0 161#000005500108003A
(1398128224.395042) can0 191#010090A1410021
(1398128224.395289) can0 164#0000C01AA8000022
(1398128224.395472) can0 133#0000000089
(1398128224.395722) can0 136#000200000000000C
(1398128224.395968) can0 13A#000000000000000A
(1398128224.396213) can0 13F#0000000500000000
(1398128224.396464) can0 17C#0000000010000003
(1398128224.396603) can0 18E#00004D
(1398128224.396820) can0 1CF#80050000000F
(1398128224.396986) can0 1DC#0200000C
(1398128224.397493) can0 183#0000000A00001001
(1398128224.398833) can0 143#6B6B00C2
(1398128224.399366) can0 333#0000000000001E
(1398128224.400659) can0 095#800007F400000035
(1398128224.401336) can0 1A4#000000080000002F
(1398128224.401587) can0 1AA#7FFF00000000682F
(1398128224.401816) can0 1B0#000F0000000166
(1398128224.402072) can0 1D0#000000000000000A
(1398128224.403346) can0 166#D0320009
(1398128224.404582) can0 158#000000000000000A
(1398128224.404823) can0 161#000005500108000D
(1398128224.405038) can0 191#010090A1410030
(1398128224.405415) can0 133#0000000098
(1398128224.405661) can0 136#000200000000001B
(1398128224.405910) can0 13A#0000000000000019
(1398128224.406159) can0 13F#000000050000001F
(1398128224.406400) can0 164#0000C01AA8000031
(1398128224.406644) can0 17C#0000000010000012
(1398128224.406784) can0 18E#00005C
(1398128224.407916) can0 183#0000000700001013
(1398128224.408036) can0 039#000C
(1398128224.408827) can0 143#6B6B00D1
(1398128224.410661) can0 095#800007F400000008
(1398128224.413325) can0 166#D0320018
(1398128224.414586) can0 158#0000000000000019
(1398128224.414824) can0 161#000005500108001C
(1398128224.415037) can0 191#010090A1410003
(1398128224.415348) can0 164#0000C01AA8000004
(1398128224.415527) can0 133#00000000A7
(1398128224.415780) can0 136#000200000000002A
(1398128224.416028) can0 13A#0000000000000028
(1398128224.416276) can0 13F#000000050000002E
(1398128224.416519) can0 17C#0000000010000021
(1398128224.416657) can0 18E#00006B
(1398128224.416873) can0 1CF#80050000001E
(1398128224.417038) can0 1DC#0200001B
(1398128224.417190) can0 320#000012
(1398128224.417440) can0 324#7465000000000E1A
(1398128224.417684) can0 183#0000000500001024
(1398128224.417928) can0 37C#FD00FD00097F001A
(1398128224.418965) can0 143#6B6B00E0
(1398128224.419920) can0 305#8026
(1398128224.420665) can0 095#800007F400000017
(1398128224.421422) can0 1A4#000000080000003E
(1398128224.421670) can0 1AA#7FFF00000000673F
(1398128224.421921) can0 1B0#000F0000000175
(1398128224.422178) can0 1D0#000000000000000A
(1398128224.423323) can0 166#D0320027
(1398128224.424583) can0 158#0000000000000028
(1398128224.424821) can0 161#000005500108002B
(1398128224.425034) can0 191#010090A1410012
(1398128224.425257) can0 18E#00007A
(1398128224.425446) can0 133#00000000B6
(1398128224.425696) can0 136#0002000000000039
(1398128224.425944) can0 13A#0000000000000037
(1398128224.426186) can0 13F#000000050000003D
(1398128224.426435) can0 164#0000C01AA8000013
(1398128224.426685) can0 17C#0000000010000030
(1398128224.426923) can0 294#040B0002CF5A003B
(1398128224.427195) can0 21E#03E8374522063E
(1398128224.427855) can0 039#001B
(1398128224.428115) can0 183#0000000B0000103D
(1398128224.428788) can0 143#6B6B00FF
(1398128224.430663) can0 095#800007F400000026
(1398128224.433322) can0 166#D0320036
(1398128224.434585) can0 158#0000000000000037
(1398128224.434825) can0 161#000005500108003A
(1398128224.435040) can0 191#010090A1410021
(1398128224.435288) can0 164#0000C01AA8000022
(1398128224.435470) can0 133#0000000089
(1398128224.435722) can0 136#000200000000000C
(1398128224.435968) can0 13A#000000000000000A
(1398128224.436212) can0 13F#0000000500000000
(1398128224.436462) can0 17C#0000000010000003
(1398128224.436603) can0 18E#00004D
(1398128224.436817) can0 1CF#80050000002D
(1398128224.436983) can0 1DC#0200002A
(1398128224.437501) can0 183#0000000800001003
(1398128224.438791) can0 143#6B6B00C2
(1398128224.440668) can0 095#800007F400000035
(1398128224.441339) can0 1A4#0000000800000001
(1398128224.441588) can0 1AA#7FFF000000006702
(1398128224.441814) can0 1B0#000F0000000148
(1398128224.441936) can0 039#002A
(1398128224.442192) can0 1D0#000000000000000A
(1398128224.443358) can0 166#D0320009
(1398128224.444584) can0 158#000000000000000A
(1398128224.444823) can0 161#000005500108000D
(1398128224.445040) can0 191#010090A1410030
(1398128224.445380) can0 164#0000C01AA8000031
(1398128224.445564) can0 133#0000000098
(1398128224.445814) can0 136#000200000000001B
(1398128224.446062) can0 13A#0000000000000019
(1398128224.446313) can0 13F#000000050000001F
(1398128224.446560) can0 17C#0000000010000012
(1398128224.446697) can0 18E#00005C
(1398128224.446956) can0 309#00000000000000A2
(1398128224.448036) can0 183#0000000D0000101D
(1398128224.448792) can0 143#6B6B00D1
(1398128224.450670) can0 095#800007F400000008
(1398128224.453327) can0 166#D0320018
(1398128224.454584) can0 158#0000000000000019
(1398128224.454822) can0 161#000005500108001C
(1398128224.455037) can0 191#010090A1410003
(1398128224.455305) can0 164#0000C01AA8000004
(1398128224.455485) can0 133#00000000A7
(1398128224.455738) can0 136#000200000000002A
(1398128224.455985) can0 13A#0000000000000028
(1398128224.456228) can0 13F#000000050000002E
(1398128224.456476) can0 17C#0000000010000021
(1398128224.456614) can0 18E#00006B
(1398128224.456829) can0 1CF#80050000003C
(1398128224.456995) can0 1DC#02000039
(1398128224.457526) can0 183#0000000900001020
(1398128224.457920) can0 039#0039
(1398128224.458793) can0 143#6B6B00E0
(1398128224.460674) can0 095#800007F400000017
(1398128224.461350) can0 1A4#0000000800000010
(1398128224.461597) can0 1AA#7FFF000000006810
(1398128224.461822) can0 1B0#000F0000000157
(1398128224.462085) can0 1D0#000000000000000A
(1398128224.463326) can0 166#D0320027
(1398128224.464586) can0 158#0000000000000028
(1398128224.464821) can0 161#000005500108002B
(1398128224.465035) can0 191#010090A1410012
(1398128224.465450) can0 164#0000C01AA8000013
(1398128224.465629) can0 133#00000000B6
(1398128224.465880) can0 136#0002000000000039
(1398128224.466128) can0 13A#0000000000000037
(1398128224.466377) can0 13F#000000050000003D
(1398128224.466623) can0 17C#0000000010000030
(1398128224.466761) can0 18E#00007A
(1398128224.467012) can0 294#040B0002CF5A000E
(1398128224.467268) can0 21E#03E83745220601
(1398128224.468064) can0 183#0000000600001032
(1398128224.468824) can0 143#6B6B00FF
(1398128224.470612) can0 095#800007F400000026
(1398128224.470852) can0 5A1#9600000000006210
(1398128224.471889) can0 039#000C
(1398128224.473324) can0 166#D0320036
(1398128224.474585) can0 158#0000000000000037
(1398128224.474823) can0 161#000005500108003A
(1398128224.475040) can0 191#010090A1410021
(1398128224.475281) can0 164#0000C01AA8000022
(1398128224.475462) can0 133#0000000089
(1398128224.475716) can0 136#000200000000000C
(1398128224.475963) can0 13A#000000000000000A
(1398128224.476207) can0 13F#0000000500000000
(1398128224.476457) can0 17C#0000000010000003
(1398128224.476597) can0 18E#00004D
(1398128224.476814) can0 1CF#80050000000F
(1398128224.476979) can0 1DC#0200000C
(1398128224.477507) can0 183#0000000C0000100F
(1398128224.478820) can0 143#6B6B00C2
(1398128224.480613) can0 095#800007F400000035
(1398128224.481340) can0 1A4#000000080000002F
(1398128224.481594) can0 1AA#7FFF00000000682F
(1398128224.481818) can0 1B0#000F0000000166
(1398128224.482078) can0 1D0#000000000000000A
(1398128224.483355) can0 166#D0320009
(1398128224.484582) can0 158#000000000000000A
(1398128224.484822) can0 161#000005500108000D
(1398128224.485038) can0 191#010090A1410030
(1398128224.485371) can0 164#0000C01AA8000031
(1398128224.485554) can0 133#0000000098
(1398128224.485804) can0 136#000200000000001B
(1398128224.486054) can0 13A#0000000000000019
(1398128224.486303) can0 13F#000000050000001F
(1398128224.486548) can0 17C#0000000010000012
(1398128224.486687) can0 18E#00005C
(1398128224.486827) can0 039#001B
(1398128224.488033) can0 183#0000000900001011
(1398128224.488799) can0 143#6B6B00D1
(1398128224.490617) can0 095#800007F400000008
(1398128224.493326) can0 166#D0320018
(1398128224.494586) can0 158#0000000000000019
(1398128224.494823) can0 161#000005500108001C
(1398128224.495037) can0 191#010090A1410003
(1398128224.495297) can0 164#0000C01AA8000004
(1398128224.495476) can0 133#00000000A7
(1398128224.495730) can0 136#000200000000002A
(1398128224.495978) can0 13A#0000000000000028
(1398128224.496221) can0 13F#000000050000002E
(1398128224.496469) can0 17C#0000000010000021
(1398128224.496611) can0 18E#00006B
(1398128224.496823) can0 1CF#80050000001E
(1398128224.496987) can0 1DC#0200001B
(1398128224.497522) can0 183#0000000600001023
(1398128224.498800) can0 143#6B6B00E0
(1398128224.499374) can0 333#0000000000002D
(1398128224.499495) can0 039#002A
(1398128224.500616) can0 095#800007F400000017
(1398128224.501419) can0 1A4#000000080000003E
(1398128224.501670) can0 1AA#7FFF00000000673F
(1398128224.501900) can0 1B0#000F0000000175
(1398128224.502156) can0 1D0#000000000000000A
(1398128224.503326) can0 166#D0320027
(1398128224.504581) can0 158#0000000000000028
(1398128224.504820) can0 161#000005500108002B
(1398128224.505034) can0 191#010090A1410012
(1398128224.505389) can0 133#00000000B6
(1398128224.505639) can0 136#0002000000000039
(1398128224.505886) can0 13A#0000000000000037
(1398128224.506135) can0 13F#000000050000003D
(1398128224.506378) can0 164#0000C01AA8000013
(1398128224.506626) can0 17C#0000000010000030
(1398128224.506762) can0 18E#00007A
(1398128224.507014) can0 294#040B0002CF5A001D
(1398128224.507270) can0 21E#03E83745220610
(1398128224.508061) can0 183#0000000C0000103C
(1398128224.508787) can0 143#6B6B00FF
(1398128224.510616) can0 095#800007F400000026
(1398128224.513324) can0 166#D0320036
(1398128224.513841) can0 039#0039
(1398128224.514584) can0 158#0000000000000037
(1398128224.514824) can0 161#000005500108003A
(1398128224.515039) can0 191#010010A1410029
(1398128224.515340) can0 164#0000C01AA8000022
(1398128224.515522) can0 133#0000000089
(1398128224.515775) can0 136#000200000000000C
(1398128224.516021) can0 13A#000000000000000A
(1398128224.516269) can0 13F#0000000500000000
(1398128224.516516) can0 17C#0000000010000003
(1398128224.516658) can0 18E#00004D
(1398128224.516871) can0 1CF#80050000002D
(1398128224.517036) can0 1DC#0200002A
(1398128224.517188) can0 320#000021
(1398128224.517439) can0 324#7465000000000E29
(1398128224.517686) can0 183#0000000900001002
(1398128224.517927) can0 37C#FD00FD00097F0029
(1398128224.518899) can0 143#6B6B00C2
(1398128224.520618) can0 095#800007F800000031
(1398128224.521351) can0 1A4#0000000800000001
(1398128224.521598) can0 1AA#7FFF000000006702
(1398128224.521826) can0 1B0#000F0000000148
(1398128224.522084) can0 1D0#000000000000000A
(1398128224.523346) can0 166#D0320009
(1398128224.524581) can0 158#000000000000000A
(1398128224.524821) can0 161#000005500108000D
(1398128224.525037) can0 191#010010A1410038
(1398128224.525397) can0 133#0000000098
(1398128224.525648) can0 136#000200000000001B
(1398128224.525897) can0 13A#0000000000000019
(1398128224.526146) can0 13F#000000050000001F
(1398128224.526386) can0 164#0000C01AA8000031
(1398128224.526503) can0 039#000C
(1398128224.526770) can0 17C#0000000010000012
(1398128224.526909) can0 18E#00005C
(1398128224.527039) can0 305#8035
(1398128224.527965) can0 183#0000000E0000101C
(1398128224.528786) can0 143#6B6B00D1
(1398128224.530620) can0 095#800007F800000004
(1398128224.533326) can0 166#D0320018
(1398128224.534585) can0 158#0000000000000019
(1398128224.534822) can0 161#000005500108001C
(1398128224.535038) can0 191#010010A141000B
(1398128224.535353) can0 164#0000C01AA8000004
(1398128224.535532) can0 133#00000000A7
(1398128224.535785) can0 136#000200000000002A
(1398128224.536034) can0 13A#0000000000000028
(1398128224.536279) can0 13F#000000050000002E
(1398128224.536524) can0 17C#0000000010000021
(1398128224.536662) can0 18E#00006B
(1398128224.536878) can0 1CF#80050000003C
(1398128224.537043) can0 1DC#02000039
(1398128224.537534) can0 183#0000000A0000102F
(1398128224.538815) can0 143#6B6B00E0
(1398128224.540624) can0 095#800007F800000013
(1398128224.540877) can0 039#001B
(1398128224.541344) can0 1A4#0000000800000010
(1398128224.541596) can0 1AA#7FFF000000006810
(1398128224.541822) can0 1B0#000F0000000157
(1398128224.542078) can0 1D0#000000000000000A
(1398128224.543344) can0 166#D0320027
(1398128224.544581) can0 158#0000000000000028
(1398128224.544821) can0 161#000005500108002B
(1398128224.545035) can0 191#010010A141001A
(1398128224.545384) can0 164#0000C01AA8000013
(1398128224.545563) can0 133#00000000B6
(1398128224.545814) can0 136#0002000000000039
(1398128224.546063) can0 13A#0000000000000037
(1398128224.546311) can0 13F#000000050000003D
(1398128224.546557) can0 17C#0000000010000030
(1398128224.546695) can0 18E#00007A
(1398128224.546950) can0 294#040B0002CF5A002C
(1398128224.547206) can0 21E#03E8374522062F
(1398128224.547491) can0 309#00000000000000B1
(1398128224.548077) can0 183#0000000700001031
(1398128224.548839) can0 143#6B6B00FF
(1398128224.550625) can0 095#800007F800000022
(1398128224.553323) can0 166#D0320036
(1398128224.554583) can0 158#0000000000000037
(1398128224.554823) can0 161#000005500108003A
(1398128224.555039) can0 191#010010A1410029
(1398128224.555317) can0 164#0000C01AA8000022
(1398128224.555499) can0 133#0000000089
(1398128224.555752) can0 136#000200000000000C
(1398128224.555999) can0 13A#000000000000000A
(1398128224.556114) can0 039#002A
(1398128224.556381) can0 13F#0000000500000000
(1398128224.556631) can0 17C#0000000010000003
(1398128224.556773) can0 18E#00004D
(1398128224.556984) can0 1CF#80050000000F
(1398128224.557150) can0 1DC#0200000C
(1398128224.557522) can0 183#0000000D0000100E
(1398128224.558806) can0 143#6B6B00C2
(1398128224.560628) can0 095#800007F800000031
(1398128224.561343) can0 1A4#000000080000002F
(1398128224.561593) can0 1AA#7FFF00000000682F
(1398128224.561823) can0 1B0#000F0000000166
(1398128224.562079) can0 1D0#000000000000000A
(1398128224.563347) can0 166#D0320009
(1398128224.564583) can0 158#000000000000000A
(1398128224.564824) can0 161#000005500108000D
(1398128224.565038) can0 191#010010A1410038
(1398128224.565394) can0 133#0000000098
(1398128224.565645) can0 136#000200000000001B
(1398128224.565893) can0 13A#0000000000000019
(1398128224.566143) can0 13F#000000050000001F
(1398128224.566383) can0 164#0000C01AA8000031
(1398128224.566628) can0 17C#0000000010000012
(1398128224.566773) can0 18E#00005C
(1398128224.568053) can0 183#0000000900001011
(1398128224.568779) can0 143#6B6B00D1
(1398128224.569911) can0 039#0039
(1398128224.570631) can0 095#800007F400000008
(1398128224.573328) can0 166#D0320018
(1398128224.574584) can0 158#0000000000000019
(1398128224.574824) can0 161#000005500108001C
(1398128224.575037) can0 191#010010A141000B
(1398128224.575413) can0 164#0000C01AA8000004
(1398128224.575593) can0 133#00000000A7
(1398128224.575848) can0 136#000200000000002A
(1398128224.576095) can0 13A#0000000000000028
(1398128224.576341) can0 13F#000000050000002E
(1398128224.576585) can0 17C#0000000010000021
(1398128224.576723) can0 18E#00006B
(1398128224.576939) can0 1CF#80050000001E
(1398128224.577104) can0 1DC#0200001B
(1398128224.577545) can0 183#0000000E0000102B
(1398128224.578780) can0 143#6B6B00E0
(1398128224.580632) can0 095#800007F400000017
(1398128224.581414) can0 1A4#000000080000003E
(1398128224.581660) can0 1AA#7FFF00000000673F
(1398128224.581889) can0 1B0#000F0000000175
(1398128224.582145) can0 1D0#000000000000000A
(1398128224.583327) can0 166#D0320027
(1398128224.584581) can0 158#0000000000000028
(1398128224.584821) can0 161#000005500108002B
(1398128224.584940) can0 039#000C
(1398128224.585170) can0 191#010010A141001A
(1398128224.585379) can0 133#00000000B6
(1398128224.585629) can0 136#0002000000000039
(1398128224.585877) can0 13A#0000000000000037
(1398128224.586125) can0 13F#000000050000003D
(1398128224.586367) can0 164#0000C01AA8000013
(1398128224.586618) can0 17C#0000000010000030
(1398128224.586756) can0 18E#00007A
(1398128224.587006) can0 294#040B0002CF5A003B
(1398128224.587259) can0 21E#03E8374522063E
(1398128224.588090) can0 183#0000000A0000103E
(1398128224.588777) can0 143#6B6B00FF
(1398128224.590636) can0 095#800007F400000026
(1398128224.593324) can0 166#D0320036
(1398128224.594583) can0 158#0000000000000037
(1398128224.594823) can0 161#000005500108003A
(1398128224.595039) can0 191#010010A1410029
(1398128224.595410) can0 164#0000C01AA8000022
(1398128224.595591) can0 133#0000000089
(1398128224.595848) can0 136#000200000000000C
(1398128224.596090) can0 13A#000000000000000A
(1398128224.596339) can0 13F#0000000500000000
(1398128224.596586) can0 17C#0000000010000003
(1398128224.596725) can0 18E#00004D
(1398128224.596940) can0 1CF#80050000002D
(1398128224.597106) can0 1DC#0200002A
(1398128224.597524) can0 183#0000000700001004
(1398128224.598775) can0 143#6B6B00C2
(1398128224.599380) can0 333#0000000000003C
(1398128224.600636) can0 095#800007F400000035
(1398128224.601345) can0 1A4#0000000800000001
(1398128224.601597) can0 1AA#7FFF000000006801
(1398128224.601825) can0 1B0#000F0000000148
(1398128224.602082) can0 1D0#000000000000000A
(1398128224.603356) can0 166#D0320009
(1398128224.603846) can0 039#001B
(1398128224.604580) can0 158#000000000000000A
(1398128224.604820) can0 161#000005500108000D
(1398128224.605036) can0 191#010010A1410038
(1398128224.605390) can0 133#0000000098
(1398128224.605641) can0 136#000200000000001B
(1398128224.605892) can0 13A#0000000000000019
(1398128224.606139) can0 13F#000000050000001F
(1398128224.606379) can0 164#0000C01AA8000031
(1398128224.606624) can0 17C#0000000010000012
(1398128224.606764) can0 18E#00005C
(1398128224.608064) can0 183#0000000D0000101D
(1398128224.608829) can0 143#6B6B00D1
(1398128224.610639) can0 095#800007F800000004
(1398128224.613327) can0 166#D0320018
(1398128224.614583) can0 158#0000000000000019
(1398128224.614821) can0 161#000005500108001C
(1398128224.615037) can0 191#010010A141000B
(1398128224.615423) can0 164#0000C01AA8000004
(1398128224.615603) can0 133#00000000A7
(1398128224.615857) can0 136#000200000000002A
(1398128224.616104) can0 13A#0000000000000028
(1398128224.616351) can0 13F#000000050000002E
(1398128224.616595) can0 17C#0000000010000021
(1398128224.616733) can0 18E#00006B
(1398128224.616949) can0 1CF#80050000003C
(1398128224.617114) can0 1DC#02000039
(1398128224.617265) can0 320#000030
(1398128224.617518) can0 324#7465000000000E38
(1398128224.617766) can0 183#0000000900001020
(1398128224.618011) can0 37C#FD00FD00097F0038
(1398128224.618129) can0 039#002A
(1398128224.618400) can0 40C#0000000004000013
(1398128224.618537) can0 454#23EF18
(1398128224.618913) can0 143#6B6B00E0
(1398128224.620640) can0 095#800007F800000013
(1398128224.621390) can0 1A4#0000000800000010
(1398128224.621642) can0 1AA#7FFF000000006810
(1398128224.621870) can0 1B0#000F0000000157
(1398128224.622126) can0 1D0#000000000000000A
(1398128224.623325) can0 166#D0320027
(1398128224.624582) can0 158#0000000000000028
(1398128224.624820) can0 161#000005500108002B
(1398128224.625034) can0 191#010010A141001A
(1398128224.625375) can0 133#00000000B6
(1398128224.625625) can0 136#0002000000000039
(1398128224.625873) can0 13A#0000000000000037
(1398128224.626122) can0 13F#000000050000003D
(1398128224.626364) can0 164#0000C01AA8000013
(1398128224.626611) can0 17C#0000000010000030
(1398128224.626748) can0 18E#00007A
(1398128224.627001) can0 294#040B0002CF5A000E
(1398128224.627257) can0 21E#03E83745220601
(1398128224.628103) can0 183#0000000600001032
(1398128224.628792) can0 143#6B6B00FF
(1398128224.630645) can0 095#800007F800000022
(1398128224.630941) can0 039#0039
(1398128224.631825) can0 305#8008
(1398128224.633325) can0 166#D0320036
(1398128224.634583) can0 158#0000000000000037
(1398128224.634823) can0 161#000005500108003A
(1398128224.635039) can0 191#010010A1410029
(1398128224.635281) can0 164#0000C01AA8000022
(1398128224.635462) can0 133#0000000089
(1398128224.635716) can0 136#000200000000000C
(1398128224.635962) can0 13A#000000000000000A
(1398128224.636206) can0 13F#0000000500000000
(1398128224.636456) can0 17C#0000000010000003
(1398128224.636596) can0 18E#00004D
(1398128224.636814) can0 1CF#80050000000F
(1398128224.636979) can0 1DC#0200000C
(1398128224.637539) can0 183#0000000C0000100F
(1398128224.638790) can0 143#6B6B00C2
(1398128224.640645) can0 095#800007F800000031
(1398128224.641336) can0 1A4#000000080000002F
(1398128224.641586) can0 1AA#7FFF00000000682F
(1398128224.641816) can0 1B0#000F0000000166
(1398128224.642072) can0 1D0#000000000000000A
(1398128224.643361) can0 166#D0320009
(1398128224.644581) can0 158#000000000000000A
(1398128224.644822) can0 161#000005500108000D
(1398128224.645038) can0 191#010010A1410038
(1398128224.645445) can0 164#0000C01AA8000031
(1398128224.645626) can0 133#0000000098
(1398128224.645878) can0 136#000200000000001B
(1398128224.646000) can0 039#000C
(1398128224.646261) can0 13A#0000000000000019
(1398128224.646510) can0 13F#000000050000001F
(1398128224.646759) can0 17C#0000000010000012
(1398128224.646899) can0 18E#00005C
(1398128224.647155) can0 309#0000000000000084
(1398128224.647412) can0 428#01040000521C2F
(1398128224.647701) can0 405#0000040000000029
(1398128224.647946) can0 183#0000000900001011
(1398128224.648768) can0 143#6B6B00D1
(1398128224.650649) can0 095#800007F800000004
(1398128224.653327) can0 166#D0320018
(1398128224.654583) can0 158#0000000000000019
(1398128224.654821) can0 161#000005500108001C
(1398128224.655038) can0 191#010010A141000B
(1398128224.655282) can0 164#0000C01AA8000004
(1398128224.655460) can0 133#00000000A7
(1398128224.655713) can0 136#000200000000002A
(1398128224.655961) can0 13A#0000000000000028
(1398128224.656204) can0 13F#000000050000002E
(1398128224.656452) can0 17C#0000000010000021
(1398128224.656591) can0 18E#00006B
(1398128224.656805) can0 1CF#80050000001E
(1398128224.656972) can0 1DC#0200001B
(1398128224.657558) can0 183#0000000E0000102B
(1398128224.658769) can0 143#6B6B00E0
(1398128224.660650) can0 095#800007F800000013
(1398128224.660858) can0 039#001B
(1398128224.661408) can0 1A4#000000080000003E
(1398128224.661654) can0 1AA#7FFF00000000673F
(1398128224.661880) can0 1B0#000F0000000175
(1398128224.662137) can0 1D0#000000000000000A
(1398128224.663325) can0 166#D0320027
(1398128224.664582) can0 158#0000000000000028
(1398128224.664819) can0 161#000005500108002B
(1398128224.665038) can0 191#010010A141001A
(1398128224.665391) can0 164#0000C01AA8000013
(1398128224.665569) can0 133#00000000B6
(1398128224.665820) can0 136#0002000000000039
(1398128224.666068) can0 13A#0000000000000037
(1398128224.666311) can0 13F#000000050000003D
(1398128224.666563) can0 17C#0000000010000030
(1398128224.666701) can0 18E#00007A
(1398128224.666953) can0 294#040B0002CF5A001D
(1398128224.667211) can0 21E#03E83745220610
(1398128224.668106) can0 183#0000000A0000103E
(1398128224.668771) can0 143#6B6B00FF
(1398128224.670652) can0 095#800007F400000026
(1398128224.673325) can0 166#D0320036
(1398128224.674583) can0 158#0000000000000037
(1398128224.674822) can0 161#000005500108003A
(1398128224.674943) can0 039#002A
(1398128224.675173) can0 191#010010A1410029
(1398128224.675415) can0 164#0000C01AA8000022
(1398128224.675596) can0 133#0000000089
(1398128224.675850) can0 136#000200000000000C
(1398128224.676098) can0 13A#000000000000000A
(1398128224.676344) can0 13F#0000000500000000
(1398128224.676594) can0 17C#0000000010000003
(1398128224.676734) can0 18E#00004D
(1398128224.676945) can0 1CF#80050000002D
(1398128224.677114) can0 1DC#0200002A
(1398128224.677543) can0 183#0000000F0000100C
(1398128224.678768) can0 143#6B6B00C2
(1398128224.680656) can0 095#800007F400000035
(1398128224.681345) can0 1A4#0000000800000001
(1398128224.681596) can0 1AA#7FFF000000006801
(1398128224.681854) can0 1B0#000F0000000148
(1398128224.682111) can0 1D0#000000000000000A
(1398128224.683348) can0 166#D0320009
(1398128224.684581) can0 158#000000000000000A
(1398128224.684822) can0 161#000005500108000D
(1398128224.685037) can0 191#010010A1410038
(1398128224.685375) can0 164#0000C01AA8000031
(1398128224.685557) can0 133#0000000098
(1398128224.685808) can0 136#000200000000001B
(1398128224.686059) can0 13A#0000000000000019
(1398128224.686306) can0 13F#000000050000001F
(1398128224.686550) can0 17C#0000000010000012
(1398128224.686691) can0 18E#00005C
(1398128224.688085) can0 183#0000000B0000101F
(1398128224.688821) can0 143#6B6B00D1
(1398128224.689890) can0 039#0039
(1398128224.690658) can0 095#800007F400000008
(1398128224.693327) can0 166#D0320018
(1398128224.694582) can0 158#0000000000000019
(1398128224.694820) can0 161#000005500108001C
(1398128224.695036) can0 191#010010A141000B
(1398128224.695286) can0 164#0000C01AA8000004
(1398128224.695464) can0 133#00000000A7
(1398128224.695718) can0 136#000200000000002A
(1398128224.695966) can0 13A#0000000000000028
(1398128224.696209) can0 13F#000000050000002E
(1398128224.696456) can0 17C#0000000010000021
(1398128224.696595) can0 18E#00006B
(1398128224.696810) can0 1CF#80050000003C
(1398128224.696975) can0 1DC#02000039
(1398128224.697568) can0 183#0000000800001021
(1398128224.698790) can0 143#6B6B00E0
(1398128224.699385) can0 333#0000000000000F
(1398128224.700662) can0 095#800007F400000017
(1398128224.701347) can0 1A4#0000000800000010
(1398128224.701599) can0 1AA#7FFF000000006810
(1398128224.701850) can0 1B0#000F0000000157
(1398128224.702108) can0 1D0#000000000000000A
(1398128224.703327) can0 166#D0320027
(1398128224.703457) can0 039#000C
(1398128224.704579) can0 158#0000000000000028
(1398128224.704818) can0 161#000005500108002B
(1398128224.705033) can0 191#010010A141001A
(1398128224.705371) can0 133#00000000B6
(1398128224.705622) can0 136#0002000000000039
(1398128224.705870) can0 13A#0000000000000037
(1398128224.706121) can0 13F#000000050000003D
(1398128224.706360) can0 164#0000C01AA8000013
(1398128224.706607) can0 17C#0000000010000030
(1398128224.706746) can0 18E#00007A
(1398128224.706999) can0 294#040B0002CF5A002C
(1398128224.707257) can0 21E#03E8374522062F
(1398128224.708112) can0 183#0000000600001032
(1398128224.708763) can0 143#6B6B00FF
(1398128224.710661) can0 095#800007F400000026
(1398128224.713326) can0 166#D0320036
(1398128224.714583) can0 158#0000000000000037
(1398128224.714823) can0 161#000005500108003A
(1398128224.715040) can0 191#010010A1410029
(1398128224.715309) can0 164#0000C01AA8000022
(1398128224.715491) can0 133#0000000089
(1398128224.715743) can0 136#000200000000000C
(1398128224.715990) can0 13A#000000000000000A
(1398128224.716236) can0 13F#0000000500000000
(1398128224.716485) can0 17C#0000000010000003
(1398128224.716625) can0 18E#00004D
(1398128224.716843) can0 1CF#80050000000F
(1398128224.717008) can0 1DC#0200000C
(1398128224.717161) can0 320#000003
(1398128224.717414) can0 324#7465000000000E0B
(1398128224.717660) can0 183#0000000400001007
(1398128224.717902) can0 37C#FD00FD00097F000B
(1398128224.718900) can0 143#6B6B00C2
(1398128224.720664) can0 095#800007F400000035
(1398128224.721350) can0 1A4#000000080000002F
(1398128224.721600) can0 1AA#7FFF00000000682F
(1398128224.721848) can0 1B0#000F0000000166
(1398128224.722100) can0 1D0#000000000000000A
(1398128224.722942) can0 039#001B
(1398128224.723356) can0 166#D0320009
(1398128224.724578) can0 158#000000000000000A
(1398128224.724821) can0 161#000005500108000D
(1398128224.725037) can0 191#010010A1410038
(1398128224.725375) can0 133#0000000098
(1398128224.725626) can0 136#000200000000001B
(1398128224.725874) can0 13A#0000000000000019
(1398128224.726124) can0 13F#000000050000001F
(1398128224.726365) can0 164#0000C01AA8000031
(1398128224.726613) can0 17C#0000000010000012
(1398128224.726752) can0 18E#00005C
(1398128224.728105) can0 183#0000000300001017
(1398128224.728759) can0 143#6B6B00D1
(1398128224.730668) can0 095#800007F400000008
(1398128224.733329) can0 166#D0320018
(1398128224.734581) can0 158#0000000000000019
(1398128224.734819) can0 161#000005500108001C
(1398128224.735036) can0 191#010010A141000B
(1398128224.735280) can0 164#0000C01AA8000004
(1398128224.735459) can0 133#00000000A7
(1398128224.735713) can0 136#000200000000002A
(1398128224.735961) can0 13A#0000000000000028
(1398128224.736206) can0 13F#000000050000002E
(1398128224.736452) can0 17C#0000000010000021
(1398128224.736591) can0 18E#00006B
(1398128224.736801) can0 1CF#80050000001E
(1398128224.736925) can0 039#002A
(1398128224.737100) can0 1DC#0200001B
(1398128224.737567) can0 183#0000000A0000102F
(1398128224.737688) can0 305#8017
(1398128224.738759) can0 143#6B6B00E0
(1398128224.740671) can0 095#800007F400000017
(1398128224.741410) can0 1A4#000000080000003E
(1398128224.741657) can0 1AA#7FFF00000000673F
(1398128224.741885) can0 1B0#000F0000000175
(1398128224.742142) can0 1D0#000000000000000A
(1398128224.743339) can0 166#D0320027
(1398128224.744581) can0 158#0000000000000028
(1398128224.744819) can0 161#000005500108002B
(1398128224.745035) can0 191#010010A141001A
(1398128224.745405) can0 164#0000C01AA8000013
(1398128224.745581) can0 133#00000000B6
(1398128224.745832) can0 136#0002000000000039
(1398128224.746080) can0 13A#0000000000000037
(1398128224.746328) can0 13F#000000050000003D
(1398128224.746578) can0 17C#0000000010000030
(1398128224.746717) can0 18E#00007A
(1398128224.746966) can0 294#040B0002CF5A003B
(1398128224.747223) can0 21E#03E8374522063E
(1398128224.747505) can0 309#0000000000000093
(1398128224.748101) can0 183#0000000700001031
(1398128224.748763) can0 143#6B6B00FF
(1398128224.750671) can0 095#800007F400000026
(1398128224.750865) can0 039#0039
(1398128224.753324) can0 166#D0320036
(1398128224.754582) can0 158#0000000000000037
(1398128224.754822) can0 161#000005500108003A
(1398128224.755039) can0 191#010010A1410029
(1398128224.755285) can0 164#0000C01AA8000022
(1398128224.755466) can0 133#0000000089
(1398128224.755719) can0 136#000200000000000C
(1398128224.755961) can0 13A#000000000000000A
(1398128224.756213) can0 13F#0000000500000000
(1398128224.756461) can0 17C#0000000010000003
(1398128224.756600) can0 18E#00004D
(1398128224.756811) can0 1CF#80050000002D
(1398128224.756976) can0 1DC#0200002A
(1398128224.757557) can0 183#0000000D0000100E
(1398128224.758785) can0 143#6B6B00C2
(1398128224.760671) can0 095#800007F400000035
(1398128224.761347) can0 1A4#0000000800000001
(1398128224.761597) can0 1AA#7FFF000000006801
(1398128224.761833) can0 1B0#000F0000000148
(1398128224.762090) can0 1D0#000000000000000A
(1398128224.763348) can0 166#D0320009
(1398128224.764581) can0 158#000000000000000A
(1398128224.764821) can0 161#000005500108000D
(1398128224.765037) can0 191#010010A1410038
(1398128224.765158) can0 039#000C
(1398128224.765373) can0 133#0000000098
(1398128224.765620) can0 136#000200000000001B
(1398128224.765868) can0 13A#0000000000000019
(1398128224.766118) can0 13F#000000050000001F
(1398128224.766359) can0 164#0000C01AA8000031
(1398128224.766606) can0 17C#0000000010000012
(1398128224.766747) can0 18E#00005C
(1398128224.767963) can0 183#0000001100001018
(1398128224.768808) can0 143#6B6B00D1
(1398128224.770676) can0 095#800007F400000008
(1398128224.773329) can0 166#D0320018
(1398128224.774582) can0 158#0000000000000019
(1398128224.774820) can0 161#000005500108001C
(1398128224.775036) can0 191#010010A141000B
(1398128224.775283) can0 164#0000C01AA8000004
(1398128224.775460) can0 133#00000000A7
(1398128224.775713) can0 136#000200000000002A
(1398128224.775961) can0 13A#0000000000000028
(1398128224.776204) can0 13F#000000050000002E
(1398128224.776452) can0 17C#0000000010000021
(1398128224.776590) can0 18E#00006B
(1398128224.776801) can0 1CF#80050000003C
(1398128224.776967) can0 1DC#02000039
(1398128224.777578) can0 183#0000000C0000102D
(1398128224.778454) can0 039#001B
(1398128224.778765) can0 143#6B6B00E0
(1398128224.780676) can0 095#800007F400000017
(1398128224.781344) can0 1A4#0000000800000010
(1398128224.781596) can0 1AA#7FFF000000006810
(1398128224.781836) can0 1B0#000F0000000157
(1398128224.782093) can0 1D0#000000000000000A
(1398128224.783324) can0 166#D0320027
(1398128224.784579) can0 158#0000000000000028
(1398128224.784817) can0 161#000005500108002B
(1398128224.785033) can0 191#010010A141001A
(1398128224.785393) can0 164#0000C01AA8000013
(1398128224.785570) can0 133#00000000B6
(1398128224.785822) can0 136#0002000000000039
(1398128224.786071) can0 13A#0000000000000037
(1398128224.786320) can0 13F#000000050000003D
(1398128224.786569) can0 17C#0000000010000030
(1398128224.786708) can0 18E#00007A
(1398128224.786955) can0 294#040B0002CF5A000E
(1398128224.787211) can0 21E#03E83745220601
(1398128224.788094) can0 183#000000090000103F
(1398128224.788754) can0 143#6B6B00FF
(1398128224.790679) can0 095#800007F400000026
(1398128224.792442) can0 039#002A
(1398128224.793327) can0 166#D0320036
(1398128224.794581) can0 158#0000000000000037
(1398128224.794821) can0 161#000005500108003A
(1398128224.795036) can0 191#010010A1410029
(1398128224.795283) can0 164#0000C01AA8000022
(1398128224.795464) can0 133#0000000089
(1398128224.795718) can0 136#000200000000000C
(1398128224.795965) can0 13A#000000000000000A
(1398128224.796209) can0 13F#0000000500000000
(1398128224.796458) can0 17C#0000000010000003
(1398128224.796598) can0 18E#00004D
(1398128224.796813) can0 1CF#80050000000F
(1398128224.796978) can0 1DC#0200000C
(1398128224.797564) can0 183#0000000600001005
(1398128224.798751) can0 143#6B6B00C2
(1398128224.799377) can0 333#0000000000001E
(1398128224.800680) can0 095#800007F400000035
(1398128224.801342) can0 1A4#000000080000002F
(1398128224.801591) can0 1AA#7FFF00000000682F
(1398128224.801833) can0 1B0#000F0000000166
(1398128224.802086) can0 1D0#000000000000000A
(1398128224.803346) can0 166#D0320009
(1398128224.804580) can0 158#000000000000000A
(1398128224.804819) can0 161#000005500108000D
(1398128224.805036) can0 191#010010A1410038
(1398128224.805371) can0 133#0000000098
(1398128224.805616) can0 136#000200000000001B
(1398128224.805864) can0 13A#0000000000000019
(1398128224.806115) can0 13F#000000050000001F
(1398128224.806357) can0 164#0000C01AA8000031
(1398128224.806603) can0 17C#0000000010000012
(1398128224.806744) can0 18E#00005C
(1398128224.806937) can0 039#0039
(1398128224.808080) can0 183#0000000C0000101E
(1398128224.808752) can0 143#6B6B00D1
(1398128224.810685) can0 095#800007F400000008
(1398128224.813329) can0 166#D0320018
(1398128224.814581) can0 158#0000000000000019
(1398128224.814819) can0 161#000005500108001C
(1398128224.815032) can0 191#010090A1410003
(1398128224.815339) can0 164#0000C01AA8000004
(1398128224.815519) can0 133#00000000A7
(1398128224.815772) can0 136#000200000000002A
(1398128224.816020) can0 13A#0000000000000028
(1398128224.816266) can0 13F#000000050000002E
(1398128224.816511) can0 17C#0000000010000021
(1398128224.816649) can0 18E#00006B
(1398128224.816860) can0 1CF#80050000001E
(1398128224.817026) can0 1DC#0200001B
(1398128224.817178) can0 320#000012
(1398128224.817429) can0 324#7465000000000E1A
(1398128224.817672) can0 37C#FD00FD00097F001A
(1398128224.817922) can0 183#0000001000001028
(1398128224.818889) can0 143#6B6B00E0
(1398128224.820687) can0 095#800007F400000017
(1398128224.821424) can0 1A4#000000080000003E
(1398128224.821669) can0 1AA#7FFF00000000673F
(1398128224.821895) can0 1B0#000F0000000175
(1398128224.822151) can0 1D0#000000000000000A
(1398128224.823322) can0 166#D0320027
(1398128224.824580) can0 158#0000000000000028
(1398128224.824819) can0 161#000005500108002B
(1398128224.825033) can0 191#010090A1410012
(1398128224.825355) can0 133#00000000B6
(1398128224.825605) can0 136#0002000000000039
(1398128224.825850) can0 13A#0000000000000037
(1398128224.826098) can0 13F#000000050000003D
(1398128224.826340) can0 164#0000C01AA8000013
(1398128224.826590) can0 17C#0000000010000030
(1398128224.826729) can0 18E#00007A
(1398128224.826976) can0 294#040B0002CF5A001D
(1398128224.827096) can0 039#000C
(1398128224.827328) can0 21E#03E83745220610
(1398128224.828141) can0 183#0000000C0000103C
(1398128224.828803) can0 143#6B6B00FF
(1398128224.830685) can0 095#800007F400000026
(1398128224.833326) can0 166#D0320036
(1398128224.834582) can0 158#0000000000000037
(1398128224.834823) can0 161#000005500108003A
(1398128224.835038) can0 191#010090A1410021
(1398128224.835281) can0 164#0000C01AA8000022
(1398128224.835464) can0 133#0000000089
(1398128224.835715) can0 136#000200000000000C
(1398128224.835961) can0 13A#000000000000000A
(1398128224.836205) can0 13F#0000000500000000
(1398128224.836458) can0 17C#0000000010000003
(1398128224.836596) can0 18E#00004D
(1398128224.836807) can0 1CF#80050000002D
(1398128224.836973) can0 1DC#0200002A
(1398128224.837564) can0 183#0000000900001002
(1398128224.838778) can0 143#6B6B00C2
(1398128224.839461) can0 305#8026
(1398128224.840689) can0 095#800007F400000035
(1398128224.841344) can0 1A4#0000000800000001
(1398128224.841596) can0 1AA#7FFF000000006801
(1398128224.841822) can0 1B0#000F0000000148
(1398128224.842078) can0 1D0#000000000000000A
(1398128224.843363) can0 166#D0320009
(1398128224.844579) can0 158#000000000000000A
(1398128224.844820) can0 161#000005500108000D
(1398128224.845034) can0 191#010090A1410030
(1398128224.845390) can0 164#0000C01AA8000031
(1398128224.845572) can0 133#0000000098
(1398128224.845820) can0 136#000200000000001B
(1398128224.846068) can0 13A#0000000000000019
(1398128224.846318) can0 13F#000000050000001F
(1398128224.846567) can0 17C#0000000010000012
(1398128224.846707) can0 18E#00005C
(1398128224.846963) can0 309#00000000000000A2
(1398128224.847947) can0 039#001B
(1398128224.848209) can0 183#0000000600001014
(1398128224.848752) can0 143#6B6B00D1
(1398128224.850689) can0 095#800007F400000008
(1398128224.853329) can0 166#D0320018
(1398128224.854580) can0 158#0000000000000019
(1398128224.854818) can0 161#000005500108001C
(1398128224.855033) can0 191#010090A1410003
(1398128224.855346) can0 133#00000000A7
(1398128224.855599) can0 136#000200000000002A
(1398128224.855847) can0 13A#0000000000000028
(1398128224.856093) can0 13F#000000050000002E
(1398128224.856336) can0 164#0000C01AA8000004
(1398128224.856580) can0 17C#0000000010000021
(1398128224.856718) can0 18E#00006B
(1398128224.856929) can0 1CF#80050000003C
(1398128224.857095) can0 1DC#02000039
(1398128224.857591) can0 183#0000000C0000102D
(1398128224.858749) can0 143#6B6B00E0
(1398128224.860691) can0 095#800007F400000017
(1398128224.861333) can0 1A4#0000000800000010
(1398128224.861586) can0 1AA#7FFF000000006810
(1398128224.861815) can0 1B0#000F0000000157
(1398128224.861937) can0 039#002A
(1398128224.862200) can0 1D0#000000000000000A
(1398128224.863323) can0 166#D0320027
(1398128224.864579) can0 158#0000000000000028
(1398128224.864817) can0 161#000005500108002B
(1398128224.865030) can0 191#010090A1410012
(1398128224.865353) can0 133#00000000B6
(1398128224.865602) can0 136#0002000000000039
(1398128224.865846) can0 13A#0000000000000037
(1398128224.866095) can0 13F#000000050000003D
(1398128224.866336) can0 164#0000C01AA8000013
(1398128224.866586) can0 17C#0000000010000030
(1398128224.866724) can0 18E#00007A
(1398128224.866975) can0 294#040B0002CF5A002C
(1398128224.867231) can0 21E#03E8374522062F
(1398128224.868111) can0 183#0000001000001037
(1398128224.868742) can0 143#6B6B00FF
(1398128224.870693) can0 095#800007F400000026
(1398128224.873326) can0 166#D0320036
(1398128224.874580) can0 158#0000000000000037
(1398128224.874820) can0 161#000005500108003A
(1398128224.875036) can0 191#010090A1410021
(1398128224.875371) can0 164#0000C01AA8000022
(1398128224.875553) can0 133#0000000089
(1398128224.875805) can0 136#000200000000000C
(1398128224.876052) can0 13A#000000000000000A
(1398128224.876300) can0 13F#0000000500000000
(1398128224.876547) can0 17C#0000000010000003
(1398128224.876686) can0 18E#00004D
(1398128224.876899) can0 1CF#80050000000F
(1398128224.877025) can0 039#0039
(1398128224.877201) can0 1DC#0200000C
(1398128224.877586) can0 183#0000000C0000100F
(1398128224.878742) can0 143#6B6B00C2
(1398128224.880696) can0 095#800007F400000035
(1398128224.881337) can0 1A4#000000080000002F
(1398128224.881588) can0 1AA#7FFF00000000682F
(1398128224.881815) can0 1B0#000F0000000166
(1398128224.882072) can0 1D0#000000000000000A
(1398128224.883349) can0 166#D0320009
(1398128224.884580) can0 158#000000000000000A
(1398128224.884819) can0 161#000005500108000D
(1398128224.885035) can0 191#010090A1410030
(1398128224.885360) can0 133#0000000098
(1398128224.885611) can0 136#000200000000001B
(1398128224.885859) can0 13A#0000000000000019
(1398128224.886106) can0 13F#000000050000001F
(1398128224.886346) can0 164#0000C01AA8000031
(1398128224.886596) can0 17C#0000000010000012
(1398128224.886734) can0 18E#00005C
(1398128224.887985) can0 183#0000001000001019
(1398128224.888740) can0 143#6B6B00D1
(1398128224.889951) can0 039#000C
(1398128224.890701) can0 095#800007F400000008
(1398128224.893330) can0 166#D0320018
(1398128224.894583) can0 158#0000000000000019
(1398128224.894818) can0 161#000005500108001C
(1398128224.895032) can0 191#010090A1410003
(1398128224.895404) can0 164#0000C01AA8000004
(1398128224.895585) can0 133#00000000A7
(1398128224.895836) can0 136#000200000000002A
(1398128224.896086) can0 13A#0000000000000028
(1398128224.896331) can0 13F#000000050000002E
(1398128224.896578) can0 17C#0000000010000021
(1398128224.896713) can0 18E#00006B
(1398128224.896925) can0 1CF#80050000001E
(1398128224.897090) can0 1DC#0200001B
(1398128224.897601) can0 183#0000000C0000102D
(1398128224.898770) can0 143#6B6B00E0
(1398128224.899389) can0 333#0000000000002D
(1398128224.900701) can0 095#800007F400000017
(1398128224.901410) can0 1A4#000000080000003E
(1398128224.901657) can0 1AA#7FFF00000000673F
(1398128224.901883) can0 1B0#000F0000000175
(1398128224.902136) can0 1D0#000000000000000A
(1398128224.903325) can0 166#D0320027
(1398128224.904580) can0 158#0000000000000028
(1398128224.904816) can0 161#000005500108002B
(1398128224.905030) can0 191#010090A1410012
(1398128224.905348) can0 133#00000000B6
(1398128224.905596) can0 136#0002000000000039
(1398128224.905844) can0 13A#0000000000000037
(1398128224.906092) can0 13F#000000050000003D
(1398128224.906333) can0 164#0000C01AA8000013
(1398128224.906584) can0 17C#0000000010000030
(1398128224.906722) can0 18E#00007A
(1398128224.906973) can0 294#040B0002CF5A003B
(1398128224.907227) can0 21E#03E8374522063E
(1398128224.908139) can0 183#000000090000103F
(1398128224.908794) can0 143#6B6B00FF
(1398128224.910455) can0 039#001B
(1398128224.910718) can0 095#800007F400000026
(1398128224.913326) can0 166#D0320036
(1398128224.914576) can0 158#0000000000000037
(1398128224.914821) can0 161#000005500108003A
(1398128224.915036) can0 191#010090A1410021
(1398128224.915401) can0 164#0000C01AA8000022
(1398128224.915586) can0 133#0000000089
(1398128224.915835) can0 136#000200000000000C
(1398128224.916082) can0 13A#000000000000000A
(1398128224.916329) can0 13F#0000000500000000
(1398128224.916581) can0 17C#0000000010000003
(1398128224.916716) can0 18E#00004D
(1398128224.916927) can0 1CF#80050000002D
(1398128224.917093) can0 1DC#0200002A
(1398128224.917245) can0 320#000021
(1398128224.917496) can0 324#7465000000000E29
(1398128224.917743) can0 183#0000000E0000100D
(1398128224.917985) can0 37C#FD00FD00097F0029
(1398128224.918219) can0 40C#014A484D46413325
(1398128224.918356) can0 454#23EF27
(1398128224.918887) can0 143#6B6B00C2
(1398128224.920702) can0 095#800007F400000035
(1398128224.921352) can0 1A4#0000000800000001
(1398128224.921603) can0 1AA#7FFF000000006801
(1398128224.921824) can0 1B0#000F0000000148
(1398128224.922082) can0 1D0#000000000000000A
(1398128224.923346) can0 166#D0320009
(1398128224.924580) can0 158#000000000000000A
(1398128224.924818) can0 161#000005500108000D
(1398128224.925035) can0 191#010090A1410030
(1398128224.925356) can0 133#0000000098
(1398128224.925603) can0 136#000200000000001B
(1398128224.925851) can0 13A#0000000000000019
(1398128224.926101) can0 13F#000000050000001F
(1398128224.926341) can0 164#0000C01AA8000031
(1398128224.926590) can0 17C#0000000010000012
(1398128224.926730) can0 18E#00005C
(1398128224.928126) can0 183#0000000A00001010
(1398128224.928737) can0 143#6B6B00D1
(1398128224.930710) can0 095#800007F400000008
(1398128224.930898) can0 039#002A
(1398128224.933329) can0 166#D0320018
(1398128224.934581) can0 158#0000000000000019
(1398128224.934819) can0 161#000005500108001C
(1398128224.935032) can0 191#010090A1410003
(1398128224.935278) can0 164#0000C01AA8000004
(1398128224.935456) can0 133#00000000A7
(1398128224.935712) can0 136#000200000000002A
(1398128224.935954) can0 13A#0000000000000028
(1398128224.936201) can0 13F#000000050000002E
(1398128224.936448) can0 17C#0000000010000021
(1398128224.936587) can0 18E#00006B
(1398128224.936799) can0 1CF#80050000003C
(1398128224.936964) can0 1DC#02000039
(1398128224.937607) can0 183#0000000700001022
(1398128224.938734) can0 143#6B6B00E0
(1398128224.940711) can0 095#800007F400000017
(1398128224.941342) can0 1A4#0000000800000010
(1398128224.941594) can0 1AA#7FFF000000006810
(1398128224.941820) can0 1B0#000F0000000157
(1398128224.942078) can0 1D0#000000000000000A
(1398128224.943336) can0 166#D0320027
(1398128224.943960) can0 039#0039
(1398128224.944578) can0 158#0000000000000028
(1398128224.944816) can0 161#000005500108002B
(1398128224.945030) can0 191#010090A1410012
(1398128224.945147) can0 305#8035
(1398128224.945404) can0 164#0000C01AA8000013
(1398128224.945582) can0 133#00000000B6
(1398128224.945833) can0 136#0002000000000039
(1398128224.946082) can0 13A#0000000000000037
(1398128224.946329) can0 13F#000000050000003D
(1398128224.946580) can0 17C#0000000010000030
(1398128224.946718) can0 18E#00007A
(1398128224.946965) can0 294#040B0002CF5A000E
(1398128224.947221) can0 21E#03E83745220601
(1398128224.947510) can0 309#00000000000000B1
(1398128224.947770) can0 428#01040000521C3E
(1398128224.948058) can0 405#0000040000000038
(1398128224.948305) can0 183#0000000D0000103B
(1398128224.948760) can0 143#6B6B00FF
(1398128224.950714) can0 095#800007F400000026
(1398128224.953322) can0 166#D0320036
(1398128224.954579) can0 158#0000000000000037
(1398128224.954820) can0 161#000005500108003A
(1398128224.955035) can0 191#010090A1410021
(1398128224.955296) can0 164#0000C01AA8000022
(1398128224.955478) can0 133#0000000089
(1398128224.955731) can0 136#000200000000000C
(1398128224.955976) can0 13A#000000000000000A
(1398128224.956222) can0 13F#0000000500000000
(1398128224.956471) can0 17C#0000000010000003
(1398128224.956612) can0 18E#00004D
(1398128224.956825) can0 1CF#80050000000F
(1398128224.956990) can0 1DC#0200000C
(1398128224.957597) can0 183#0000000900001002
(1398128224.957973) can0 039#000C
(1398128224.958735) can0 143#6B6B00C2
(1398128224.960714) can0 095#800007F400000035
(1398128224.961337) can0 1A4#000000080000002F
(1398128224.961587) can0 1AA#7FFF00000000682F
(1398128224.961815) can0 1B0#000F0000000166
(1398128224.962068) can0 1D0#000000000000000A
(1398128224.963353) can0 166#D0320009
(1398128224.964578) can0 158#000000000000000A
(1398128224.964819) can0 161#000005500108000D
(1398128224.965034) can0 191#010090A1410030
(1398128224.965210) can0 18E#00005C
(1398128224.965403) can0 133#0000000098
(1398128224.965654) can0 136#000200000000001B
(1398128224.965902) can0 13A#0000000000000019
(1398128224.966151) can0 13F#000000050000001F
(1398128224.966391) can0 164#0000C01AA8000031
(1398128224.966640) can0 17C#0000000010000012
(1398128224.968111) can0 183#0000000E0000101C
(1398128224.968787) can0 143#6B6B00D1
(1398128224.970718) can0 095#800007F400000008
(1398128224.972903) can0 039#001B
(1398128224.973329) can0 166#D0320018
(1398128224.974580) can0 158#0000000000000019
(1398128224.974818) can0 161#000005500108001C
(1398128224.975031) can0 191#010090A1410003
(1398128224.975276) can0 164#0000C01AA8000004
(1398128224.975455) can0 133#00000000A7
(1398128224.975708) can0 136#000200000000002A
(1398128224.975953) can0 13A#0000000000000028
(1398128224.976199) can0 13F#000000050000002E
(1398128224.976447) can0 17C#0000000010000021
(1398128224.976585) can0 18E#00006B
(1398128224.976797) can0 1CF#80050000001E
(1398128224.976961) can0 1DC#0200001B
(1398128224.977614) can0 183#0000000A0000102F
(1398128224.978766) can0 143#6B6B00E0
(1398128224.980722) can0 095#800007F400000017
(1398128224.981409) can0 1A4#000000080000003E
(1398128224.981657) can0 1AA#7FFF00000000673F
(1398128224.981883) can0 1B0#000F0000000175
(1398128224.982139) can0 1D0#000000000000000A
(1398128224.983325) can0 166#D0320027
(1398128224.984578) can0 158#0000000000000028
(1398128224.984817) can0 161#000005500108002B
(1398128224.985030) can0 191#010090A1410012
(1398128224.985385) can0 164#0000C01AA8000013
(1398128224.985560) can0 133#00000000B6
(1398128224.985812) can0 136#0002000000000039
(1398128224.986060) can0 13A#0000000000000037
(1398128224.986308) can0 13F#000000050000003D
(1398128224.986558) can0 17C#0000000010000030
(1398128224.986696) can0 18E#00007A
(1398128224.986945) can0 294#040B0002CF5A001D
(1398128224.987204) can0 21E#03E83745220610
(1398128224.987895) can0 039#002A
(1398128224.988155) can0 183#0000000F00001039
(1398128224.988767) can0 143#6B6B00FF
(1398128224.990720) can0 095#800007F400000026
(1398128224.993328) can0 166#D0320036
(1398128224.994580) can0 158#0000000000000037
(1398128224.994821) can0 161#000005500108003A
(1398128224.995035) can0 191#010090A1410021
(1398128224.995316) can0 164#0000C01AA8000022
(1398128224.995498) can0 133#0000000089
(1398128224.995750) can0 136#000200000000000C
(1398128224.995993) can0 13A#000000000000000A
(1398128224.996241) can0 13F#0000000500000000
(1398128224.996491) can0 17C#0000000010000003
(1398128224.996632) can0 18E#00004D
(1398128224.996843) can0 1CF#80050000002D
(1398128224.997009) can0 1DC#0200002A
(1398128224.997611) can0 183#0000001300001007
(1398128224.998729) can0 143#6B6B00C2
(1398128224.999391) can0 333#0000000000003C
(1398128225.000720) can0 095#800007F400000035
(1398128225.001346) can0 1A4#0000000800000001
(1398128225.001597) can0 1AA#7FFF000000006801
(1398128225.001825) can0 1B0#000F0000000148
(1398128225.002076) can0 1D0#000000000000000A
(1398128225.003347) can0 166#D0320009
(1398128225.004579) can0 158#000000000000000A
(1398128225.004821) can0 161#000005500108000D
(1398128225.005034) can0 191#010090A1410030
(1398128225.005352) can0 133#0000000098
(1398128225.005600) can0 136#000200000000001B
(1398128225.005848) can0 13A#0000000000000019
(1398128225.006097) can0 13F#000000050000001F
(1398128225.006220) can0 039#0039
(1398128225.006474) can0 164#0000C01AA8000031
(1398128225.006723) can0 17C#0000000010000012
(1398128225.006862) can0 18E#00005C
(1398128225.008016) can0 183#0000000E0000101C
(1398128225.008747) can0 143#6B6B00D1
(1398128225.010724) can0 095#800007F400000008
(1398128225.013330) can0 166#D0320018
(1398128225.014580) can0 158#0000000000000019
(1398128225.014822) can0 161#000005500108001C
(1398128225.015031) can0 191#010090A1410003
(1398128225.015344) can0 164#0000C01AA8000004
(1398128225.015524) can0 133#00000000A7
(1398128225.015776) can0 136#000200000000002A
(1398128225.016025) can0 13A#0000000000000028
(1398128225.016267) can0 13F#000000050000002E
(1398128225.016515) can0 17C#0000000010000021
(1398128225.016653) can0 18E#00006B
(1398128225.016867) can0 1CF#80050000003C
(1398128225.017031) can0 1DC#02000039
(1398128225.017182) can0 320#000030
(1398128225.017435) can0 324#7465000000000E38
(1398128225.017679) can0 37C#FD00FD00097F0038
(1398128225.017926) can0 183#0000000A0000102F
(1398128225.018869) can0 143#6B6B00E0
(1398128225.020727) can0 095#800007F400000017
(1398128225.021354) can0 1A4#0000000800000010
(1398128225.021604) can0 1AA#7FFF000000006810
(1398128225.021829) can0 1B0#000F0000000157
(1398128225.022085) can0 1D0#000000000000000A
(1398128225.023326) can0 166#D0320027
(1398128225.024577) can0 158#0000000000000028
(1398128225.024815) can0 161#000005500108002B
(1398128225.024935) can0 039#000C
(1398128225.025160) can0 191#010090A1410012
(1398128225.025351) can0 133#00000000B6
(1398128225.025600) can0 136#0002000000000039
